#frequency,mode,x,y,Ex_re,Ex_im,Ey_re,Ey_im,Ez_re,Ez_im,Hx_re,Hx_im,Hy_re,Hy_im,Hz_re,Hz_im
9e+09,1,0.009,0.003,-0.0488298211512136,1.61337982666607e-14,1,0,4.66440546225946e-13,0.340835179614993,-0.00388503878101132,-6.92534866182449e-15,-2.26044947843939e-09,-1.45282408966437e-14,3.24670482847428e-15,0.000556451721352923
9000000000,1,0.004,0.002,-0.172986443914967,-1.92791304641206e-13,0.649219625245374,-3.38143783230721e-13,8.38209421311232e-14,0.138968737812848,-0.00252226491421605,1.04267415754364e-14,-1.61070514906036e-08,-1.56202091911314e-14,-2.20280430277073e-15,0.00313937758024206
9000000000,1,0.004,0.004,-0.323819995646437,-1.93388524346191e-13,0.521814505025428,4.90008477344651e-14,-9.77128687449928e-13,0.260162036622969,-0.00202726450086423,-2.31694411575778e-14,-1.98460258161282e-09,5.41068179068515e-15,-2.39131039863577e-15,0.00252331559756515
9000000000,1,0.004,0.005,-0.311993689121359,1.89983166778039e-13,1.13046277528367,-3.41642880187568e-13,-6.2267149881281e-14,0.250666039077096,-0.00179258455914598,-3.36328263200683e-14,-4.20966631247635e-09,2.02097661472036e-14,2.39011122784157e-16,0.00223123752140264
9000000000,1,0.004,0.007,-0.150206882546377,-1.29939647828173e-13,1.01397445666863,4.40162344715581e-13,-3.33283458131908e-13,0.120653935170976,-0.0016078805929102,-7.35057654175722e-15,4.88334752372338e-09,-5.71472248473843e-15,-2.32161742596338e-15,0.00200131549587575
9000000000,1,0.011,0.002,0.0334533824794761,1.35292337023613e-13,1.09092669819473,-7.64693887079369e-13,8.85410287534586e-13,0.233517246631056,-0.00423822261083729,-3.07621271915051e-15,-9.39183740779187e-09,-4.06114367885714e-14,5.564464925645e-15,-0.00060704666828593
9000000000,1,0.011,0.004,0.0626152462151163,2.48345771555941e-13,0.876835478727087,-4.40586630362247e-13,3.24181671261949e-13,0.437164970660501,-0.00340659600351817,2.47723502822902e-14,2.77593608409458e-10,2.47053486569594e-14,2.61599933603947e-15,-0.000487921541788156
9000000000,1,0.011,0.005,0.060325979494708,9.34796228172902e-14,1.89958154535659,-5.03575604103811e-13,1.64452760060425e-12,0.421208270457939,-0.00301220843967346,-8.79365997377355e-15,-1.13924192338426e-09,8.9435921635606e-15,2.86389932074313e-15,-0.000431433925478149
9000000000,1,0.011,0.007,0.0290376828217493,-4.573440037289e-13,1.70382888200288,-1.11698335314189e-12,8.96748084718992e-13,0.202741850668662,-0.00270180764123367,3.2393745158542e-14,-8.87228656716744e-10,-7.85243275774197e-15,3.8882731132015e-15,-0.000386965617890006
9000000000,1,0.016,0.002,0.172966289048676,-1.05912479374854e-13,0.649227357631057,-5.05521611308796e-13,-7.19286049480358e-13,0.138969328604243,-0.00252220881749357,2.36229238484319e-14,3.24464260074641e-08,-3.63804212275919e-15,-5.06932625839486e-15,-0.00313939059295382
9000000000,1,0.016,0.004,0.323816810433388,-9.700014370721e-15,0.521813081977185,4.69373223308111e-14,8.86481836083977e-13,0.260162252291823,-0.00202732239136984,-3.54366571356488e-14,-9.42956370947165e-09,-6.6588132414084e-15,-3.32523740916893e-15,-0.00252332328207919
9000000000,1,0.016,0.005,0.311993791733106,6.38507424710011e-13,1.13046249850977,-5.76408412842365e-13,4.14383165315438e-13,0.250666039621627,-0.00179258319736669,2.56739289453936e-14,4.51389309647447e-09,-2.93159074930501e-14,-4.02418704958775e-15,-0.00223123686823151
9000000000,1,0.016,0.007,0.15020743408302,6.17276693814142e-14,1.01397485811824,-1.51737048662833e-12,-9.7158130309699e-14,0.120653944463702,-0.00160788133641239,5.18133585203428e-14,-5.14058975661195e-09,-4.60844021217924e-14,-3.04746044421971e-15,-0.00200131585711673
9000000000,2,0.009,0.003,1,-0,0.5271123057078,-3.04831606865875e-12,0.216587323778697,-1.14024546621655e-12,1.2303039313927e-13,0.00246990521001801,7.04340136953263e-15,2.96056069583298e-08,-1.63842427232652e-14,-0.0113990619143511
9000000000,2,0.004,0.002,-0.222654997010611,5.23687673249852e-13,1.76979203411669,-4.78893084928214e-12,0.456700078869756,6.7441574847686e-13,-2.99308059613712e-14,0.00828900562813836,-2.58925279757521e-14,4.20864835127704e-08,1.2161749021945e-14,0.00404071338072392
9000000000,2,0.004,0.004,-0.4168453579475,1.68253024438846e-12,1.42242775441313,-4.07233066566336e-12,0.854980657533942,3.35252948985933e-12,2.94873121427066e-14,0.00666235365984301,-9.05596826526039e-14,7.10281627601688e-08,1.54801591631443e-14,0.00324778066675477
9000000000,2,0.004,0.005,-0.401596151069516,1.57482782480458e-12,3.08166807141288,-9.55250462134734e-12,0.823774508800662,2.70447046592617e-12,9.16739650263373e-14,0.00589092629502618,-7.25669699828223e-14,4.19995621744539e-08,1.59985251110565e-14,0.00287186483752184
9000000000,2,0.004,0.007,-0.193409503339807,8.12970384853736e-13,2.76409782126777,-9.20222440477884e-12,0.39651048045289,-1.26983540443863e-12,-3.08251754733453e-14,0.00528412755868636,2.66066704001276e-14,-2.904763456508e-08,3.23298321417213e-15,0.00257606849254247
9000000000,2,0.011,0.002,0.685039325863829,-2.41504594637714e-14,-0.575031706614599,1.20312451326965e-13,-0.148390214518804,-4.74234337402955e-13,-1.17120387030513e-13,-0.00269654835876792,8.99419331676111e-14,-1.48555123167722e-07,-2.66669848798598e-14,-0.012435580621434
9000000000,2,0.011,0.004,1.28265836200602,-5.34929761961587e-13,-0.462183334791184,-2.08582305875099e-13,-0.277800700455752,2.18664770032893e-12,1.36658909244069e-14,-0.00216486678551837,-4.70474382254698e-14,-1.57386254002072e-08,-2.64092742352033e-14,-0.0099953847869558
9000000000,2,0.011,0.005,1.23570376395617,-2.35961830620093e-14,-1.00125233078625,3.80948408001867e-14,-0.267659198277758,9.84463118535313e-13,7.64298508201033e-15,-0.00191386414909924,1.35956704464391e-14,-6.06612375918324e-08,-2.84446658618455e-14,-0.00883812569305562
9000000000,2,0.011,0.007,0.594801019543246,6.48172696308453e-13,-0.898065770838542,-1.0984735511773e-13,-0.128829027302032,-3.35287007460792e-13,8.52305019912825e-14,-0.00171652711825425,-1.14569732484892e-13,9.473614994628e-08,-4.46407924356732e-14,-0.00792748385821428
9000000000,2,0.016,0.002,-0.222630764183614,2.55224543617016e-12,-1.76981079464122,6.20250671019205e-12,-0.456702907809513,3.02286571195189e-12,-3.54790960508142e-14,-0.00828877338095337,-2.54055314350811e-14,6.06313723661963e-08,1.93537160144767e-14,0.00404033818891601
9000000000,2,0.016,0.004,-0.416680881450622,3.98093013238576e-12,-1.42242888095987,3.8691538558297e-12,-0.854982284343243,2.79851575789433e-12,-2.46890553619932e-14,-0.00666286795272201,1.0421438372628e-13,-6.7959803619445e-08,1.28216352425631e-14,0.00324749130695639
9000000000,2,0.016,0.005,-0.401597274200654,4.21075644692489e-12,-3.08166629267213,9.0234619355189e-12,-0.82377457030774,4.05266110526988e-12,4.14879045041033e-14,-0.00589092252848424,8.41630666713898e-14,4.68737389503227e-08,7.12718713169653e-15,0.00287188027072406
9000000000,2,0.016,0.007,-0.193413365380956,3.18604916991309e-12,-2.76410068061617,7.42649011108511e-12,-0.396510525002797,3.69276409968069e-13,4.37185566828848e-14,-0.00528413765327556,1.75862343045936e-14,-3.09651285175994e-08,-7.43717164189041e-15,0.00257607390017812
9000000000,3,0.009,0.003,1,0,5.46037928185464e-09,-1.43954602598943e-12,3.31440112308917e-10,1.85539582923174e-12,-4.06459993148901e-15,-4.70685066074812e-08,2.10716482212222e-14,-0.0034213049008727,-8.55622281077845e-15,-0.00242570116373625
9000000000,3,0.004,0.002,0.759518373268345,6.56144518603756e-13,1.66905935325977e-06,-1.84938791494955e-12,6.51183564089555e-10,1.60735051959305e-14,3.93203732279993e-15,1.08514591915834e-07,7.8458738621939e-15,-0.0025985397784632,7.43308867249412e-15,-0.00425906045322014
9000000000,3,0.004,0.004,1.09593695432258,7.45211663148595e-13,7.11942717659235e-09,-1.51809190653912e-12,1.76934788776342e-09,4.7834792871964e-13,1.63708838949442e-14,8.73052159567922e-10,-4.5648391445109e-15,-0.00374961994742311,2.19862863572147e-15,-0.000241428519220576
9000000000,3,0.004,0.005,1.04039231147697,2.7892336269169e-13,-4.91679208291849e-07,-3.35964971313902e-12,1.72374019062921e-09,5.05990552494391e-13,2.18731684981591e-14,6.95150502117729e-10,-9.21039426861591e-15,-0.00355961004946782,5.4006848849356e-17,0.00159324748585619
9000000000,3,0.004,0.007,0.637062947537102,1.35575106981154e-13,-1.23016200984818e-06,-3.01690064209712e-12,5.62211683992385e-10,8.2919465286933e-13,4.72078503415181e-15,-6.50761677500722e-08,-1.57010481558845e-14,-0.00217959974045714,4.93162832106555e-16,0.00390192336015969
9000000000,3,0.011,0.002,0.759562521017333,4.54592238461387e-13,1.93519745120581e-06,3.63069183291467e-14,-1.48735974626723e-10,2.09588844625127e-12,-2.14549383250768e-14,-2.71080338032359e-08,1.93911934151581e-14,-0.00259851102133901,-1.00914320189542e-14,-0.00425878587589575
9000000000,3,0.011,0.004,1.09593208402779,4.94314644740273e-13,6.08058911304729e-09,4.99141488761342e-13,-4.71084331341106e-10,2.99968589907425e-12,-5.91364077440317e-16,1.45247412818647e-10,-3.47757448617533e-15,-0.00374960316971193,-1.25471261463019e-14,-0.000241621462808335
9000000000,3,0.011,0.005,1.04039142224556,6.05479294385403e-13,-1.78720491466142e-07,1.53960727289938e-12,9.27086335098349e-12,2.83732816463084e-12,1.90244202557844e-15,6.30440196007349e-10,4.94500833704773e-15,-0.00355961088831987,-1.50921528792298e-14,0.00159326796282468
9000000000,3,0.011,0.007,0.637071924185547,6.73977009305004e-13,-2.10252558762036e-06,2.39480064372335e-12,-1.30438071021392e-10,1.57146277433564e-12,7.60366854626393e-15,-3.2191417902065e-08,1.28670220449679e-14,-0.0021795563286355,-2.13037835649102e-14,0.00390194562964716
9000000000,3,0.016,0.002,0.759600378952172,3.61628657085594e-12,-3.25427598739531e-05,3.22234626607238e-12,-5.29588073066622e-10,1.33008775981697e-12,-2.15316311240943e-14,2.48093028336621e-08,6.17095013491136e-15,-0.00259859550404163,2.04914728338904e-14,-0.00425924703385241
9000000000,3,0.016,0.004,1.09593462857223,5.22963557783705e-12,2.45238299260968e-07,2.58303722269871e-12,-1.04760854185813e-09,1.9879573043271e-12,-1.51445503914432e-14,6.94516831053132e-10,8.42153896323668e-15,-0.00374961564162253,3.36366462357072e-15,-0.000241470242416054
9000000000,3,0.016,0.005,1.04039223356164,5.26829750798639e-12,5.25573872974796e-07,5.8009067341383e-12,-1.37536644505174e-09,1.96218177112453e-12,-7.16547851265073e-15,-7.2025334431646e-10,4.99714914611338e-15,-0.00355961055204611,-3.15333122290756e-15,0.00159326202594368
9000000000,3,0.016,0.007,0.637063311426548,2.98496123116975e-12,1.44928562450282e-06,5.2032542722658e-12,-4.58751117197033e-10,8.08192764024339e-13,-1.1553111047498e-14,6.52922374407401e-08,8.43907272553463e-16,-0.00217959901906649,-1.11436125968578e-14,0.00390192482841608
9000000000,4,0.009,0.003,-0.0888565888943769,1.58944951494303e-13,-0.243654173245081,-1.29114179521185e-12,1,-0,4.0036405292802e-14,0.00155961682491107,1.77669752124052e-15,1.15279683909441e-08,-1.32040203305681e-14,0.000138657088943485
9000000000,4,0.004,0.002,-0.347397750307609,7.18457845744204e-12,-0.246324568912801,-5.96502757268677e-12,0.449664083806949,-4.84841563589452e-13,1.04075169346625e-14,0.0015765980149904,2.78540711835477e-14,1.06114871526083e-08,4.04313315850711e-14,0.00121803525162433
9000000000,4,0.004,0.004,-0.508189501614789,9.79503945983263e-12,-0.0234962746087039,-2.64700472959054e-12,0.657745361234444,-1.68998374460428e-12,3.10820442911067e-14,0.00015042033278408,2.1766819513802e-14,2.06921925781563e-08,-6.2161019731754e-15,0.000116225092700511
9000000000,4,0.004,0.005,-0.482906927747076,9.45381120760795e-12,0.15835991003914,-4.12565824243741e-12,0.625023580970493,-1.02844969070451e-12,3.82120276856812e-14,-0.000413727541427737,1.32523362744334e-14,3.64546315364995e-10,-2.26289663460357e-14,-0.000319659203636532
9000000000,4,0.004,0.007,-0.292010565061112,5.62362118487538e-12,0.356534559932012,-3.04719477919449e-13,0.377965549958412,-1.55200075789404e-12,1.6447096767106e-15,-0.000931441572680022,5.11711395456553e-14,7.35924227075429e-09,-4.52761484748196e-14,-0.000719624881096532
9000000000,4,0.011,0.002,0.0672136076381721,-1.42084045770374e-12,-0.413976076409561,-2.77815533248571e-12,0.755597993551885,1.22516284085087e-12,-2.35727855574325e-14,0.00264905065783527,2.99112602929937e-14,2.24606708351853e-08,-1.34777805835286e-14,-0.000235513845523934
9000000000,4,0.011,0.004,0.0982642842732474,-2.78755774384341e-12,-0.0395157402927113,7.96551843060107e-13,1.10524126213598,1.85991047772375e-12,-3.05966187511907e-14,0.000252893466738477,-2.57284010195905e-14,-1.29537215198262e-09,-1.1542241601414e-14,-2.24887682408137e-05
9000000000,4,0.011,0.005,0.0933693930430153,-3.26232220033533e-12,0.266104739781909,5.270229819732e-12,1.05026217141034,2.76036470317991e-12,-7.6439550131998e-15,-0.000695233724361807,-1.2430757126524e-14,-2.42140242244284e-09,-6.9169180747737e-15,6.18127698888453e-05
9000000000,4,0.011,0.007,0.0564612296847199,-2.53178481985653e-12,0.599105693623039,6.56469335651226e-12,0.635118786802983,1.1326595646018e-12,-2.81641800209409e-14,-0.00156514839818556,-4.03236769909927e-14,4.00581803943027e-09,9.3117714952461e-15,0.000139152049333152
9000000000,4,0.016,0.002,0.347482026041445,-4.18317542182984e-12,-0.246334143772877,-9.52182525443767e-13,0.449668932858552,1.05796838536747e-12,-3.18968808965683e-14,0.00157656381171924,-2.48191614184401e-14,-2.62573699334377e-08,-3.28466201669558e-14,-0.00121811296969636
9000000000,4,0.016,0.004,0.508184088093842,-6.51464900765011e-12,-0.0235078194900427,1.66461862236144e-12,0.657743925198328,3.1894245289129e-12,2.72658975881327e-14,0.000150478589117674,-1.90452663783282e-15,1.87162606026584e-08,-6.45617858821761e-15,-0.000116258883462055
9000000000,4,0.016,0.005,0.482907071986965,-5.58640107912493e-12,0.15836044889588,4.7857653272119e-12,0.625023530916727,2.7457803733651e-12,-2.59957571782923e-14,-0.000413732336840631,2.53508850079054e-14,2.535078209976e-10,7.46307692780702e-15,0.000319664581089019
9000000000,4,0.016,0.007,0.292011255122888,-4.9636315117996e-12,0.356535070426821,4.08133044067073e-12,0.37796557160507,7.9516756125565e-13,-3.55044462324032e-14,-0.00093144298818002,3.2237924503114e-14,-7.35917955817249e-09,3.61161560831653e-14,0.000719624637559862
9000000000,5,0.009,0.003,-0.291735271571259,-2.75334328778965e-12,2.55362965369918e-05,3.39859899971045e-12,1,0,2.68885336456904e-14,0.00242589766437124,-7.3250714487419e-15,0.000838737494075837,-2.04125579229619e-14,0.000707957527493141
9000000000,5,0.004,0.002,-1.14644003823775,-7.3655936751284e-12,-3.30087939085985e-05,-7.91681935376777e-13,0.452021054398686,-2.51064932928403e-13,-8.42198617373031e-15,0.00253468494592286,-3.313861888311e-14,0.00329438587151299,-5.31825239653813e-14,0.00642843063105337
9000000000,5,0.004,0.004,-1.65419350028537,-1.09618235603955e-11,-1.64837858776094e-05,-2.11536912298269e-12,0.652203899668249,-1.39139524516749e-12,2.85921319469096e-14,0.000143604371198305,-6.32907910464289e-14,0.00475378605686701,-8.01836671532942e-15,0.000364409760400499
9000000000,5,0.004,0.005,-1.57035051828676,-9.9051007595235e-12,1.11735368104948e-05,-7.20212268214328e-12,0.619148195866454,-7.52993664813804e-13,4.74415307365148e-14,-0.000948120332717742,-6.90161825080548e-14,0.00451286311387224,1.75328569897698e-14,-0.00240483341746577
9000000000,5,0.004,0.007,-0.961610102167029,-6.31758950597703e-12,2.38173708884346e-05,-7.38355089004333e-12,0.379136909716687,-1.21823429888225e-12,3.16596798659395e-14,-0.0023221357081564,-6.42660932794726e-16,0.00276328137858364,5.10017616150945e-14,-0.00588943040194297
9000000000,5,0.011,0.002,0.221814757175093,2.24630134061994e-12,-8.46292547640025e-05,4.86980684944187e-12,0.759558675449635,1.38754937528905e-12,-5.56036983274067e-14,0.00425930170246973,4.62038478401063e-14,-0.000636998031266241,9.12682955164531e-15,-0.00124296561168524
9000000000,5,0.011,0.004,0.319857735533869,2.62205722354331e-12,-0.000114585934421824,1.36676441532262e-12,1.09592918621085,1.85475559975614e-12,-2.73531295132891e-14,0.00024163905872696,-4.32708589052401e-15,-0.000919200299633555,-9.5890000505031e-15,-7.05466084210652e-05
9000000000,5,0.011,0.005,0.303630540322586,2.12732792823417e-12,3.75412029188226e-05,-1.07450591899869e-13,1.04038938902872,2.52072978229198e-12,9.37890752082232e-15,-0.00159324250958705,6.94117773985347e-15,-0.000872593773476278,-1.51884248499508e-14,0.000465026006005223
9000000000,5,0.011,0.007,0.185929020001776,8.78336379223343e-13,3.40210775763978e-05,-5.42627427877058e-12,0.63708716026763,1.08612554096831e-12,1.94815276685537e-14,-0.00390206680374332,-2.87618752401048e-14,-0.00053425310973765,-1.30986593435982e-14,0.00113882827254848
9000000000,5,0.016,0.002,1.14660713749072,1.17388561679234e-11,-3.11868002554168e-05,3.37183084025894e-12,0.45202614972188,1.3358559523479e-12,-4.55375633282405e-14,0.00253475500053546,4.52444590998912e-14,-0.00329448210643922,7.1784070352317e-14,-0.00642887131704665
9000000000,5,0.016,0.004,1.65417522801431,1.6446882015233e-11,-6.02661136113019e-05,2.02797256157227e-12,0.652202310374019,3.13304024966851e-12,2.39970562245688e-14,0.00014371001129007,8.92741089254442e-14,-0.00475371954903212,-1.39740569343341e-15,-0.000364589783895365
9000000000,5,0.016,0.005,1.57035072316241,1.61411260670138e-11,1.24007348294972e-05,1.50857979044309e-12,0.619148149744316,2.68027907368786e-12,-4.79335903370522e-15,-0.000948126416276809,1.10661672206139e-13,-0.00451285921532268,-3.46864132791677e-14,0.00240486435380766
9000000000,5,0.016,0.007,0.961611559303893,7.98569038908151e-12,2.45429489694038e-05,-3.44645038447946e-12,0.379136932126615,6.378369897721e-13,-1.08928984312483e-14,-0.00232214055591106,8.28164625064052e-14,-0.0027632822454761,-6.82010228729505e-14,0.00588942832420608
10000000000,1,0.009,0.003,-0.0471275754105746,3.54293221015129e-15,1,0,-7.50985227575904e-16,0.399311529867659,-0.00415707267143249,-2.59939461975221e-18,-3.25463451271311e-09,-2.74976931814295e-17,-7.64333217416153e-18,0.000490489181513134
10000000000,1,0.004,0.002,-0.167839885373606,-4.38492580999512e-16,0.661113470923023,2.27537309734987e-15,-1.71273466902447e-15,0.163675633467828,-0.00274831972826344,-1.09643306737511e-17,-1.83156395798762e-08,-9.30047059389056e-20,9.98457769766498e-20,0.00281792420165521
10000000000,1,0.004,0.004,-0.31014480970081,-3.72984889102653e-16,0.506275974050645,2.99469254140999e-15,-2.56834299129543e-15,0.302478348543627,-0.0021046239457996,-2.0085890576838e-17,-3.67778336510987e-09,1.4245002634322e-18,-1.22775289483916e-17,0.00215797039570622
10000000000,1,0.004,0.005,-0.296208724754201,-5.01598631470472e-15,1.06236305918883,-5.4651234500293e-16,-2.08040469690109e-15,0.288893357284525,-0.00180255304071659,-1.33999949871813e-17,-4.3699533119353e-09,1.66342121138761e-18,-1.54605889172339e-17,0.00184826884121399
10000000000,1,0.004,0.007,-0.1409740298377,2.82217530834667e-15,0.923745638533654,3.21800604721862e-15,-1.19295739406783e-15,0.137457656311167,-0.00156736704218611,-7.06830518120626e-19,3.98413608597007e-09,9.90214706934871e-18,-6.48616143202467e-18,0.00160710322086462
10000000000,1,0.011,0.002,0.0324577898423254,-3.63471732296756e-15,1.1109154257466,8.85249983220221e-15,7.7614835119371e-17,0.275033685458906,-0.00461805734440453,-6.65091653888373e-19,-1.28745916142374e-08,1.01267685080329e-17,-1.17721102457942e-18,-0.000544888541992387
10000000000,1,0.011,0.004,0.0599711663706819,9.58420819137429e-16,0.85072582501402,1.78993485017888e-15,-1.18230643542836e-15,0.50827142205962,-0.00353660032082246,3.0205255176322e-18,3.19892973007224e-10,1.31017799821379e-17,1.69602711158311e-18,-0.000417277862925879
10000000000,1,0.011,0.005,0.0572740421907226,-1.34238265636625e-16,1.78514904536063,1.55548930321863e-15,-4.07518195964472e-16,0.485443770975294,-0.00302895770817067,-1.12901676361691e-17,-1.41840825697045e-09,5.03743588774745e-18,-3.22206541346192e-18,-0.000357382453059882
10000000000,1,0.011,0.007,0.0272523731951821,-2.38334104780805e-15,1.55221309118932,-1.91436115606063e-15,-7.08955624669789e-16,0.230978102401373,-0.00263373225004792,1.58871443418572e-17,-7.3814762903698e-10,-1.25835001847805e-19,-1.16512530393027e-17,-0.000310741525388547
