#frequency,mode,x,y,Ex_re,Ex_im,Ey_re,Ey_im,Ez_re,Ez_im,Hx_re,Hx_im,Hy_re,Hy_im,Hz_re,Hz_im
9e+09,1,0.009144,0.004064,1.57544815351669e-06,1.85975733248771e-16,1,-0,9.69845110992964e-16,-5.4344776661166e-14,-0.00181936511570101,7.94278469936765e-18,9.28866977941517e-09,-2.53989179166106e-18,-3.35055385319567e-18,0.00062835866738297
9000000000,1,0.004572,0.002032,7.3137487765018e-06,-1.53043440193468e-17,0.618034678983502,-3.80315578124077e-15,2.78161436510134e-17,-2.35535926998739e-14,-0.00112443404138141,6.65057947362291e-18,1.84382877414705e-08,4.92527987193423e-19,-2.8445837565271e-18,0.00164508417272328
9000000000,1,0.004572,0.004064,-1.44554295455307e-06,3.15912611533893e-16,0.61803137102101,-8.38111908060701e-16,2.21608272975751e-16,1.15227630609091e-13,-0.00112442544401429,3.02791777429506e-18,3.46922824245905e-09,-4.55178176429601e-18,-5.25376159669283e-18,0.00164510386503608
9000000000,1,0.004572,0.006096,-1.27160828850062e-06,1.80715116113062e-16,0.618032906467327,-1.53498275875637e-15,2.1421676326822e-16,8.25374829057477e-14,-0.00112442736808244,6.01850691813013e-18,1.65476488859301e-10,-6.24436332418306e-18,3.8620519667532e-18,0.00164509615242902
9000000000,1,0.004572,0.008128,-7.28873334710133e-06,-3.69885911007325e-16,0.618034918011066,1.27353838805694e-16,3.33273276365654e-16,4.79294410495003e-14,-0.00112443992683348,1.48674342753996e-18,-1.71211886153071e-08,1.23069131119245e-18,-2.25291882669126e-18,0.00164507847004804
9000000000,1,0.009144,0.002032,-9.37479564102664e-07,2.20691841711651e-16,0.999995831620345,-3.30681580305615e-15,3.6570130768844e-16,-5.94025345626277e-14,-0.00181935825605978,7.04596991047901e-18,-3.21753600867084e-10,-3.29632270148192e-19,-1.3489458207422e-18,0.000628368447054543
9000000000,1,0.009144,0.006096,2.32504360448841e-08,-6.9128741300642e-16,0.999995952175739,-1.36713204129566e-15,1.49275652966172e-15,3.0225679634936e-14,-0.00181934796297074,3.76061829470545e-18,1.6407408563502e-09,-1.07223315958068e-17,-7.78827219948466e-19,0.000628377033513528
9000000000,1,0.009144,0.008128,7.7733635504001e-07,-2.11678503917321e-15,0.999997477204913,-3.54305551933751e-16,7.70169616555151e-16,1.82572205850856e-14,-0.00181935725109798,-7.34653839066107e-18,1.28309211283499e-09,-6.98687753292344e-18,1.88931144021256e-17,0.000628359129049179
9000000000,1,0.013716,0.002032,8.87580940647572e-07,1.19655518828044e-17,0.999995711997381,-1.98098603227154e-15,-4.79782969172649e-16,3.25757424088959e-14,-0.00181935915552831,-2.39589779847333e-18,3.72738287980176e-10,1.09386885063559e-18,-6.96184381965517e-18,-0.000628378915342507
9000000000,1,0.013716,0.004064,-2.32641070759528e-06,-1.61808121368284e-15,0.999997597237201,-5.41455567699591e-16,-3.37818329166451e-16,-8.5781240168894e-15,-0.0018193673896969,4.36572834032064e-18,-7.75653118477594e-10,1.21985206322691e-18,1.97799220858432e-17,-0.000628347021952099
9000000000,1,0.013716,0.006096,1.69293083538285e-06,-3.5371575254635e-16,0.999999595352998,-5.02282417005442e-15,-1.59805172953907e-16,-1.18490841653871e-14,-0.00181936059917674,1.55407710066014e-17,5.52204823970383e-09,-8.21528348741019e-18,1.3374079347989e-17,-0.000628360469608337
9000000000,1,0.013716,0.008128,-3.43316942507651e-06,3.0331657040721e-15,0.999997428922353,-2.45325870463578e-15,5.39556231080312e-17,1.55669246083404e-13,-0.00181936570063385,2.80987065136032e-18,3.26963667715381e-09,5.52451050289243e-18,-3.90413052552562e-18,-0.000628346981189264
9000000000,1,0.018288,0.002032,-1.12525783846039e-05,-1.02547778940281e-15,0.618024252807175,-3.14464766508508e-16,-4.27647711776195e-16,-1.32109274769992e-13,-0.00112444387006707,-4.95942870134874e-18,-1.69392694128962e-08,-4.47671914587112e-19,-1.07660171338062e-17,-0.00164509933262066
9000000000,1,0.018288,0.004064,1.96848642015803e-07,-1.05200621346345e-15,0.618031640329392,-1.55452356909252e-15,-4.55301733084012e-16,-1.1620111980494e-13,-0.0011244246728269,-1.03546434155017e-18,1.1026655306487e-09,-1.84507984512771e-18,1.10309864462685e-17,-0.00164509850870954
9000000000,1,0.018288,0.006096,-1.91162885734525e-06,-2.46732616358481e-15,0.618032790769569,-1.93767695429829e-15,-6.64651962540218e-16,-2.55013810682643e-13,-0.00112442627327431,5.19185189920419e-18,-1.66708611328146e-09,-1.2421580797028e-17,3.7877846638432e-17,-0.00164509636041643
9000000000,1,0.018288,0.008128,2.89753956931014e-06,-5.99724018543485e-16,0.618031467385287,-2.25509013038506e-15,-1.37438317814114e-16,1.17774282449501e-13,-0.00112441058118947,5.19511870412703e-18,1.61895022962748e-08,-4.41251818316625e-18,-1.22953744231062e-17,-0.00164510499678122
9000000000,2,0.009144,0.004064,-5.09304541133647e-05,7.68371248841596e-16,1,-0,-5.19782851491923e-13,-1.71614065058523e-14,2.98754310052624e-17,0.0028121877373127,-2.08780597170541e-17,4.91689781983234e-07,-2.58171127957124e-17,-0.00532424000277914
9000000000,2,0.004572,0.002032,2.43307814804407e-05,6.3141108957415e-15,1.61818642803159,-4.46158351585684e-15,-1.68802135495555e-13,-6.8136496025093e-15,4.3723347961473e-17,0.00455122393414472,-1.70763334099464e-17,-8.2304155156878e-08,-3.88869938581028e-17,0.00203304827850574
9000000000,2,0.004572,0.004064,-3.9022103647981e-06,2.10493689534378e-15,1.61816748839674,-1.02393231918424e-14,3.05658825608555e-13,-9.78488848070968e-15,3.06494845667078e-17,0.00455112881127032,-1.82909246363953e-17,-3.16229621779275e-08,1.06172062377832e-16,0.0020339029424691
9000000000,2,0.004572,0.006096,-4.36177733590816e-06,2.43644472673624e-15,1.61817709124313,-1.3156234514076e-14,1.6862319999681e-13,-9.22479717247018e-15,2.50422317834314e-17,0.00455116283719458,-2.3584449183262e-17,-4.99168276513067e-09,2.72064021070166e-17,0.00203356120755326
9000000000,2,0.004572,0.008128,-2.52853099277382e-05,-9.67309438875005e-17,1.61818820015973,-1.55555243137511e-14,1.04318081926622e-13,-5.0222691349003e-15,1.41526266136937e-17,0.00455123326173045,-1.24412130365169e-17,8.44136618276539e-08,2.17447099097938e-17,0.00203282176218853
9000000000,2,0.009144,0.002032,3.08648482425054e-05,4.39851420902693e-16,1.00013658631205,5.69523746880506e-15,-4.18209047889513e-13,-1.08774380106457e-14,5.00357105710488e-17,0.00281254096851791,-1.0820189830191e-17,-6.08066555721093e-09,-7.62239651322068e-17,-0.00532411326884643
9000000000,2,0.009144,0.006096,2.00296590831967e-06,6.30568683343958e-15,1.00016398231495,-1.15025222701605e-14,-2.06232426447786e-13,-1.77000013277559e-14,1.80768184423325e-17,0.00281333389149266,-2.67246964458189e-17,1.38274251511775e-07,-8.45928206324521e-17,-0.00532405851686588
9000000000,2,0.009144,0.008128,-3.18151910670445e-05,2.39137441548673e-15,1.00008855203499,-2.36985642243936e-14,-8.78029823047011e-14,-9.41285183296675e-15,-2.85552074619287e-17,0.00281253961483647,-1.50665463224621e-17,7.98457837688718e-08,2.44306364671293e-17,-0.00532438473003877
9000000000,2,0.013716,0.002032,3.12595689038917e-05,3.95648788840211e-16,-1.00013984884884,1.77012632317672e-14,-2.02007119196075e-13,-1.27378552622429e-14,1.24257046414488e-17,-0.00281253912232276,-9.68688101945741e-18,-2.56942694558699e-08,-5.32585490959788e-17,-0.00532384561722015
9000000000,2,0.013716,0.004064,-8.32828563888512e-05,-6.90452329955494e-15,-1.00008352018532,1.11519635234805e-14,-2.62340980279311e-13,-1.41685694569449e-14,-8.35260399293435e-18,-0.00281205280406407,1.58332090405103e-17,6.00146410882981e-08,3.77258495505048e-17,-0.00532444513665276
9000000000,2,0.013716,0.006096,5.65003356334535e-05,-7.29077944284848e-15,-1.00001973751382,-8.27566521568975e-15,-3.6494437574504e-13,-1.28625269169125e-14,-2.2115716347875e-17,-0.00281243329642399,1.80066074977529e-17,-2.81965398753602e-07,3.90871592336306e-17,-0.00532422533976738
9000000000,2,0.013716,0.008128,-0.00012895529683178,-2.36145654257456e-15,-1.00008853444485,-2.76676183057767e-15,-5.80351367884758e-13,-7.60434104288099e-15,-3.58053306720254e-17,-0.0028121031767423,3.44779191170896e-18,-1.60596580363908e-07,-5.25398500957872e-17,-0.00532458594925062
9000000000,2,0.018288,0.002032,3.39003137294593e-05,-2.60195320068353e-15,-1.61816198438841,1.55042484100876e-14,4.51096154032363e-13,-3.98858635883797e-15,-1.6603590058866e-17,-0.0045512628115324,1.32302339591226e-17,-1.04534338180869e-07,3.64982722309056e-17,0.0020335731352016
9000000000,2,0.018288,0.004064,-1.05329698282542e-06,-5.24822726229762e-15,-1.61817259371174,8.19542482811641e-15,3.58321358582331e-13,-6.26733906589037e-15,-3.01867594835266e-17,-0.00455114139256588,2.13702871844172e-17,1.13364138506103e-08,4.07493136098639e-17,0.00203366139279746
9000000000,2,0.018288,0.006096,9.71863234985223e-06,2.21712921005375e-15,-1.61817615437838,7.3839932948829e-15,8.83929352441957e-13,-4.53521735855735e-15,-1.84844772682527e-17,-0.0045511544747577,-2.60337819653391e-17,-1.15984685107364e-08,2.07883119934629e-16,0.00203357123730337
9000000000,2,0.018288,0.008128,-1.26177447322858e-05,-9.31269634897392e-15,-1.61817133432131,1.13253539639664e-14,-5.3814428843823e-13,-5.84752343334799e-15,-3.8277116425786e-17,-0.0045510999395936,5.02456472258033e-18,9.25372292323249e-08,-1.00029125954948e-16,0.00203395570193969
9000000000,3,0.009144,0.004064,1,-2.40115828780021e-31,-5.15774985675698e-05,9.55033308912082e-16,-5.03654730491496e-13,-9.19239722771285e-15,-8.38512907288817e-18,4.10562778455659e-08,-1.33694477163012e-17,-0.0034473902495725,4.36550523375674e-18,-0.00141385299613301
9000000000,3,0.004572,0.002032,0.617970354755033,6.55448792552156e-16,0.000144838732482558,2.57235437241446e-15,-4.53702523115994e-13,-2.17749165258619e-15,-1.25554614077942e-17,1.20383944055827e-07,8.98754501645098e-18,-0.00213001337437908,9.26876821260161e-18,-0.00370168028710069
9000000000,3,0.004572,0.004064,0.999971442614215,4.25174988714596e-15,1.83758573653702e-05,1.89025057941508e-15,-1.29953348875923e-12,-3.32124053061858e-15,1.032180961878e-17,1.09895346135479e-07,-2.58518612433058e-17,-0.0034471821602803,-9.51227215888858e-19,-0.00141362320804613
9000000000,3,0.004572,0.006096,0.999972540011147,2.72112889339555e-15,-9.25615154928254e-06,-1.00275117818976e-15,-9.47029831562658e-13,-3.19270553906743e-15,-4.79844530634018e-19,-7.0722558501885e-11,-1.31112549789054e-17,-0.00344729173570355,-9.90527123529343e-17,0.00141364356016131
9000000000,3,0.004572,0.008128,0.617971015218844,9.90083437514817e-17,-0.000143220335311159,-4.27422447282674e-15,-4.44960105296592e-13,-2.0406597584729e-15,-2.72185924850312e-17,9.80559468874599e-09,-1.17484975132459e-17,-0.00212998718058952,2.96327131183891e-17,0.00370168317864632
9000000000,3,0.009144,0.002032,0.618016975714881,-4.51999975280877e-16,-6.48037871659861e-05,6.34751120752631e-15,-1.72652493275138e-13,-5.32502278851658e-15,6.08983536503367e-18,-6.91194676004719e-08,-3.34125202906127e-18,-0.00213037212901805,-2.34124543407132e-17,-0.00370144428440101
9000000000,3,0.009144,0.006096,0.999972509136667,2.6317380548496e-15,1.09893383576723e-06,-4.74584216947615e-15,-1.27696484672528e-12,-1.09126655043289e-14,2.65957314478732e-17,-2.86253524544044e-09,-1.3469219167405e-17,-0.00344722302805418,8.36065637861626e-17,0.00141381859054646
9000000000,3,0.009144,0.008128,0.618014278295442,1.19110537404065e-15,-5.17479939707949e-07,-9.24472107462929e-15,-1.00098926212492e-12,-7.33491667208872e-15,-2.17138494180006e-17,-9.29550676733916e-09,-1.02273904282706e-17,-0.00213050507902553,4.52611940027714e-17,0.00370137509798936
9000000000,3,0.013716,0.002032,0.618016061239706,-4.53449375809625e-15,6.60461974030908e-05,4.98083144232033e-15,5.98684566054536e-13,-3.29170423528384e-15,3.59196271841538e-18,7.20345194688757e-08,5.47744362232998e-18,-0.00213038016933578,-2.58057289132411e-17,-0.00370142600216386
9000000000,3,0.013716,0.004064,0.999970243839876,-5.90892767664427e-15,-1.65465957120023e-05,1.19388929904587e-15,6.31194314073127e-13,-6.56775521195843e-15,-2.92499801672491e-18,-1.81512601700877e-08,2.55034702953241e-17,-0.0034472234983389,1.38991459396435e-17,-0.00141383700319865
9000000000,3,0.013716,0.006096,0.99997464895168,-6.40029056759696e-15,8.53537370827774e-06,2.34222655266281e-15,2.90852037690607e-13,-8.88036657273351e-15,-7.83301801261155e-18,5.35690951274252e-08,2.92412640474973e-17,-0.00344723063260836,-3.17978621090047e-17,0.00141403087583546
9000000000,3,0.013716,0.008128,0.618018754864931,-5.83345172444055e-15,-6.77121511383339e-05,-6.94589922217822e-15,4.30531394155352e-14,-6.78502962614024e-15,-4.92264436818991e-18,-7.05612095812516e-08,3.25160206329181e-18,-0.00213038247608353,-5.39686630545942e-18,0.00370143481528203
9000000000,3,0.018288,0.002032,0.618056294102122,-2.84565665156201e-15,5.64776751134719e-05,-9.21110079400632e-16,3.03335126620007e-13,-1.81044750889335e-15,9.9668067987563e-18,-7.86625962575546e-08,-1.86862818517378e-17,-0.00213083166779339,1.73869327469749e-17,-0.00370144725496423
9000000000,3,0.018288,0.004064,0.999969499431311,-3.45910682646448e-15,1.73393434905552e-05,6.00922657223192e-16,8.11580577030197e-13,-2.18490883950109e-15,3.35141015302806e-18,-1.45691547918446e-08,-1.2084206610012e-17,-0.00344708420813268,1.76379538645841e-17,-0.00141402130465395
9000000000,3,0.018288,0.006096,0.999961153219535,-1.13549577604149e-15,5.5791779025165e-06,5.54256167122268e-16,1.05216055092517e-12,-2.94973074237955e-15,1.10167935319556e-17,1.00860889685064e-08,-4.0573990442147e-17,-0.00344712832582741,8.53481754500776e-17,0.00141391077543041
9000000000,3,0.018288,0.008128,0.617979188616789,-5.59647111818672e-16,0.000106730945317013,-1.95714418658979e-15,4.50847546700314e-13,-1.85115116757051e-15,-7.05819687522969e-18,2.44586106223716e-08,-1.36692423914157e-17,-0.00212988775894444,-5.25594376171787e-17,0.00370168500742749
9000000000,4,0.009144,0.004064,1,0,-0.444948200714129,2.64515358402189e-05,0.000439708813336117,-8.96470525409449e-05,2.21507669096615e-08,-0.00175577916860778,-5.63505526878876e-08,-0.00395406130055925,-1.66291332618288e-08,-0.00169281048566632
9000000000,4,0.004572,0.002032,1.61809880950059,-1.23469971554124e-08,-0.719384767410472,4.28359035725043e-05,0.000167953476459041,-3.42420568121995e-05,3.584356316595e-08,-0.00284353378013075,-9.11406959059475e-08,-0.00639357904944418,-1.13989436752373e-07,-0.0116038828043174
9000000000,4,0.004572,0.004064,2.61788756892614,-8.25201477193138e-09,-0.274772254048522,1.63586068649996e-05,0.000271753689433439,-5.54046605045887e-05,1.36888031093725e-08,-0.00108632394621744,-1.47505636383453e-07,-0.0103473241256305,-4.35372161234504e-08,-0.00443199622013634
9000000000,4,0.004572,0.006096,2.61789852776034,-7.98976107175909e-09,0.274702967317049,-1.63502922102651e-05,0.000271754663505582,-5.54048589059093e-05,-1.36885602841757e-08,0.0010852921603804,-1.47511897137003e-07,-0.0103484464719041,4.35363489048383e-08,0.00443190793664578
9000000000,4,0.004572,0.008128,1.61810335272545,-1.22730329054003e-08,0.719389317961029,-4.28359648792778e-05,0.000167953601304506,-3.42420823309706e-05,-3.58317493215019e-08,0.00284363367677766,-9.11438159641804e-08,-0.00639365773900944,1.13993806988486e-07,0.0116043276905885
9000000000,4,0.009144,0.002032,0.618023794415436,7.15674628223643e-11,-1.16395241223346,6.92762838368594e-05,0.000271753221554647,-5.5404564424131e-05,5.79905566369656e-08,-0.00459900783217887,-3.48298493910079e-08,-0.00244351011761434,-4.35508087346561e-08,-0.00443337992955779
9000000000,4,0.009144,0.006096,1.00001979580656,-4.07950982026304e-09,0.444718187655552,-2.64583659777253e-05,0.000439709412066212,-8.96471748629789e-05,-2.21439295711604e-08,0.00175684771257787,-5.63457036192582e-08,-0.0039537596664963,1.66323116262359e-08,0.00169313401061927
9000000000,4,0.009144,0.008128,0.617980866339552,-1.91165264155154e-09,1.16382092956398,-6.92768412537516e-05,0.000271755165138285,-5.54049610279132e-05,-5.79945656039368e-08,0.00459900735113272,-3.48215836287153e-08,-0.00244283467699339,4.35434297846217e-08,0.00443262874893256
9000000000,4,0.013716,0.002032,-0.61801650678061,-6.45746154998999e-11,-1.16395092117099,6.92761943347867e-05,0.000271753198675738,-5.54045600308337e-05,5.79901099511047e-08,-0.00459905791386668,3.48297707448221e-08,0.00244354924360333,4.35514647312972e-08,0.00443344670024702
9000000000,4,0.013716,0.004064,-0.999879130525559,3.80891437013811e-09,-0.444727055777999,2.64582552014306e-05,0.000439708152566592,-8.96469179550012e-05,2.21425219768843e-08,-0.00175624633729331,5.63349193970229e-08,0.00395159489596095,1.66280349886783e-08,0.00169269869286159
9000000000,4,0.013716,0.006096,-0.999925922804956,3.79048399329276e-09,0.444854404227494,-2.64573647801791e-05,0.00043970892787115,-8.96470759494932e-05,-2.21534665500298e-08,0.00175646365552242,5.63252029728753e-08,0.00395176336336749,-1.66286236745563e-08,-0.00169275859280128
9000000000,4,0.013716,0.008128,-0.617897002615674,-1.19396377040667e-11,1.1638151861889,-6.92758055244461e-05,0.00027175323878025,-5.54045679774351e-05,-5.79938121617733e-08,0.00459889550137233,3.48236147011743e-08,0.0024430442141766,-4.35498355080295e-08,-0.00443328084631463
9000000000,4,0.018288,0.002032,-1.61822509390045,-1.31168170424692e-10,-0.719724131592915,4.28058467409144e-05,0.000167953615018136,-3.42420850637133e-05,3.58375239081191e-08,-0.00284133676963093,9.12041692105579e-08,0.00639885913171205,1.13996094707432e-07,0.0116045605827212
9000000000,4,0.018288,0.004064,-2.61792884074806,6.50595214748607e-09,-0.274858524267968,1.63579999667091e-05,0.000271754891805067,-5.54049055251975e-05,1.36920182421593e-08,-0.0010860234645795,1.47514629066296e-07,0.0103488159755921,4.35505280015234e-08,0.00443335135262706
9000000000,4,0.018288,0.006096,-2.61781735386532,1.06600285360033e-08,0.27478307739119,-1.63571093055661e-05,0.00027175385095473,-5.5404693464669e-05,-1.36932354098028e-08,0.00108595532096088,1.4750019605136e-07,0.0103475722301875,-4.35465484859532e-08,-0.00443294624150025
9000000000,4,0.018288,0.008128,-1.61803060942045,1.22507542837287e-08,0.719360251864703,-4.28339551849943e-05,0.00016795436718485,-3.42422384746128e-05,-3.58453555147467e-08,0.00284323340438098,9.11362789186031e-08,0.00639362179558944,-1.14003757397875e-07,-0.0116053406167425
9000000000,5,0.009144,0.004064,-0.109587078597275,-3.76810203763378e-06,-0.246316728825701,1.67612113959554e-06,1,-0,-6.6163640543778e-09,0.000439511239263867,-1.48982652965368e-08,-0.000195298585320417,-6.37837394203463e-09,5.6235220482956e-09
9000000000,5,0.004572,0.002032,-0.177184986404771,-6.09716098523664e-06,-0.399016103674833,2.70992346988992e-06,0.381965227662215,3.27453409583144e-14,-1.07153878182294e-08,0.000711463628019471,-2.40899724295193e-08,-0.000316056714232003,-4.37225026748747e-08,3.85481364861808e-08
9000000000,5,0.004572,0.004064,-0.286794597070518,-9.8644668031773e-06,-0.152375214979566,1.03506756424977e-06,0.618031033513378,2.10435200369265e-14,-4.09363250665537e-09,0.000271751060085273,-3.89870454035064e-08,-0.000511550456922919,-1.66994073110513e-08,1.47231057437618e-08
9000000000,5,0.004572,0.006096,-0.286798723602221,-9.86450811130182e-06,0.152290055094995,-1.03480642401445e-06,0.618033246653188,1.48853556295156e-14,4.08974421968729e-09,-0.000271635279500389,-3.89912741175885e-08,-0.000511497302368421,1.66990696326656e-08,-1.47228118726842e-08
9000000000,5,0.004572,0.008128,-0.177186309272601,-6.09717799546148e-06,0.39901628931411,-2.7099407051436e-06,0.381965512264466,1.07548567573963e-14,1.07157637057209e-08,-0.000711342787219813,-2.40902685947356e-08,-0.000316082896752523,4.37241802371078e-08,-3.85496124666261e-08
9000000000,5,0.009144,0.002032,-0.0677282206280628,-2.3287767672496e-06,-0.645250092033791,4.38461081357808e-06,0.618029961562724,8.44740430856789e-15,-1.73306016651575e-08,0.00115089933721945,-9.20675201090865e-09,-0.000120763554492932,-1.6704625193018e-08,1.47277019330865e-08
9000000000,5,0.009144,0.006096,-0.10954373908041,-3.76817652723886e-06,0.246418128286431,-1.67525469214068e-06,1.00000136420192,2.25029721850575e-14,6.62039102171717e-09,-0.000439552067076162,-1.48971281237217e-08,-0.000195277546655694,6.37959649759801e-09,-5.62459387453946e-09
