#frequency,mode,x,y,Ex_re,Ex_im,Ey_re,Ey_im,Ez_re,Ez_im,Hx_re,Hx_im,Hy_re,Hy_im,Hz_re,Hz_im
9e+09,1,0.009144,0.004064,5.99721677687103e-07,-2.89681000638217e-14,1,-0,1.23932361004913e-14,3.93366203653342e-14,-0.00181937597702792,-7.85287320365796e-16,-1.94082308806072e-08,-7.79515769679643e-17,7.39446102362198e-17,0.000628375855807797
9000000000,1,0.004572,0.002032,7.43325605222154e-06,-7.71233090768601e-15,0.618048088850272,3.96949271840548e-14,2.21864763136246e-14,8.22582977290686e-15,-0.00112454610093303,-1.53388179388638e-16,-8.98623649104378e-08,-1.32230828476917e-16,-1.88809656625171e-16,0.00164508950510687
9000000000,1,0.004572,0.004064,2.55273619350762e-06,-2.11793809962757e-14,0.618038683916032,4.95693967754073e-14,1.91476529297721e-14,1.7618957741454e-14,-0.00112443336596648,-3.38658956139268e-16,-2.06668242256581e-08,-1.54392820928747e-16,-8.07280530468939e-17,0.00164511387803132
9000000000,1,0.004572,0.006096,-2.55273627558208e-06,-2.1934871996001e-14,0.618038683916016,4.42563546642243e-14,-3.05525657348728e-14,1.07689292979778e-14,-0.00112443336614733,-4.67030679669451e-16,2.06669465286308e-08,-1.39138827148983e-16,5.3100936919706e-17,0.00164511387814124
9000000000,1,0.004572,0.008128,-7.43325607104355e-06,-8.17624393251114e-15,0.618048088850305,9.19696276624765e-14,-3.81894413452172e-14,-1.23072763280472e-14,-0.00112454610150199,9.54584330849607e-17,8.98626661799384e-08,-2.046360668952e-16,1.01827431116387e-16,0.00164508950496453
9000000000,1,0.009144,0.002032,-1.87331495232871e-05,-8.16298184021913e-15,1.00001378705164,5.67223587860845e-15,-1.85384705816924e-14,1.54083829750739e-14,-0.00181940753476328,-5.48429297210623e-16,-2.93457968695227e-08,1.21567319680645e-16,2.71854856404459e-16,0.000628357489953501
9000000000,1,0.009144,0.006096,-5.99721620233599e-07,-2.24587258507622e-14,0.999999999999993,-1.49129791411906e-14,3.88042350466697e-14,-1.62325305655203e-14,-0.0018193759750367,7.5273128688172e-16,1.94080605886493e-08,3.76542506097023e-17,4.02269868303547e-16,0.000628375855878096
9000000000,1,0.009144,0.008128,1.87331495269556e-05,-6.52629133025944e-15,1.00001378705165,2.40612203712624e-14,1.22692613371971e-15,8.40972212687955e-14,-0.00181940753474669,-6.18958828320357e-16,2.93458275154822e-08,-4.20265178161922e-17,4.27155608204195e-16,0.000628357490070593
9000000000,1,0.013716,0.002032,1.87331495466396e-05,1.28459975104272e-15,1.00001378705172,-9.73021376799098e-14,-5.44101970076087e-14,-2.66378054143904e-14,-0.00181940753478026,-6.19038707847003e-17,2.93458251189868e-08,-1.89004073698024e-17,2.1508172902528e-16,-0.000628357490138017
9000000000,1,0.013716,0.004064,-5.99721560494426e-07,-1.29728192119086e-14,1.00000000000004,-9.49296978759164e-14,-1.36855957141451e-14,-2.21354740191071e-15,-0.00181937597477316,-2.36617511688439e-16,1.940758478204e-08,5.19840245224465e-16,-2.8383302621467e-17,-0.000628375856195807
9000000000,1,0.013716,0.006096,5.99721679509649e-07,-1.4736313459992e-14,1.00000000000007,-8.66047281559345e-14,-6.1697444936478e-14,4.19826685811473e-14,-0.00181937597638481,-3.67789225380127e-17,-1.94084254687155e-08,2.86610063169592e-16,1.06167613760646e-17,-0.000628375856151729
9000000000,1,0.013716,0.008128,-1.87331495243298e-05,-1.03822893723646e-14,1.00001378705178,-5.70113837280647e-14,5.77636807815726e-15,5.78335412712453e-14,-0.00181940753476034,-2.87266587699198e-16,-2.93456691148563e-08,-7.90404371429351e-17,1.24074153338611e-16,-0.000628357489940757
9000000000,1,0.018288,0.002032,-7.43325606701094e-06,7.15373731434021e-15,0.618048088850426,-8.02092524016933e-14,2.46823785851059e-14,4.45298583656075e-15,-0.00112454610183044,5.20183549279802e-16,8.98630746330215e-08,-1.37943965522728e-16,-2.96811239006304e-16,-0.00164508950522742
9000000000,1,0.018288,0.004064,-2.55273624989147e-06,1.30883430162293e-14,0.618038683916096,-6.78661378028769e-14,-1.25902034198229e-14,3.69981328298616e-15,-0.00112443336610177,-2.92613292992653e-17,2.06667024668016e-08,8.15450779562593e-17,-1.86941286151924e-16,-0.00164511387805835
9000000000,1,0.018288,0.006096,2.5527362340581e-06,1.68573514732965e-14,0.618038683916103,-6.02806774558877e-14,7.25164284652445e-15,1.56629371038962e-14,-0.00112443336623797,2.25627025158044e-16,-2.06665157806339e-08,6.305552318914e-17,-1.91491489731264e-16,-0.00164511387790818
9000000000,1,0.018288,0.008128,7.43325606610671e-06,1.72087487435729e-14,0.618048088850397,-6.20754951730029e-14,-1.43455689639967e-14,-3.83490278133669e-14,-0.00112454610055937,-1.23533715742034e-16,-8.98629442564122e-08,4.3148952776006e-17,-8.37173657727082e-17,-0.00164508950508632
9000000000,2,0.009144,0.004064,0.000398598776597919,1.06109669747671e-13,1,0,-1.44848709263046e-13,1.14382942734489e-13,1.66104888820703e-15,0.00281154088090638,1.8688438836723e-15,-4.72365118994324e-07,-1.66577217388316e-16,-0.0053335440365022
9000000000,2,0.004572,0.002032,0.000617279857269518,1.92449582067367e-13,1.62223190397259,-8.32645830028672e-14,1.57146908356708e-13,1.2861762298014e-13,-6.38360373833082e-15,0.00455308015620156,-1.7589036224797e-15,-2.98046248802216e-06,1.21108722521461e-15,0.00202069527428594
9000000000,2,0.004572,0.004064,0.000267855604567001,3.00728695602645e-13,1.62096581646656,-5.45789459354308e-14,6.42677958155088e-14,1.83307727769576e-13,4.01709432090751e-16,0.0045586212145469,1.36416652543602e-15,3.39602381038733e-07,3.05209203697617e-16,0.00203530465275389
9000000000,2,0.004572,0.006096,-0.000267855604279923,2.8950616816341e-13,1.62096581646654,-4.35874828408551e-14,1.78057943234029e-13,1.12305909150737e-13,4.13868035296332e-16,0.00455862121452985,3.01822632591066e-15,-3.39602483158667e-07,-7.19577435902606e-16,0.00203530465283676
9000000000,2,0.004572,0.008128,-0.000617279857112119,1.60768714145397e-13,1.62223190397268,-3.8851002886362e-14,1.06921467971187e-14,1.07306973041668e-13,9.28816874944506e-15,0.00455308015569695,-1.64103277905795e-15,2.98046270767853e-06,-1.53654822045072e-15,0.00202069527399255
9000000000,2,0.009144,0.002032,-0.000383132560599246,9.08098757448725e-14,0.999822994490211,-8.75788218882299e-14,-1.05348302589971e-13,1.23935512015266e-13,-2.05697952593843e-15,0.00280434625233536,1.71700274236286e-16,9.46682076053353e-07,4.55247790980696e-16,-0.00533644026892679
9000000000,2,0.009144,0.006096,-0.000398598776021554,9.29906087596046e-14,1,9.57782362080818e-14,1.52289777922981e-13,1.94019226754909e-13,-1.34613496449601e-15,0.00281154088185575,1.0129390176276e-15,4.72365563501901e-07,-8.46711868831776e-16,-0.00533354403646655
9000000000,2,0.009144,0.008128,0.000383132560925401,6.74018991287097e-14,0.999822994490068,2.56672584041814e-13,-3.70255455680559e-13,2.00257462985414e-13,-3.86219085243066e-15,0.00280434625229511,2.06295145316088e-15,-9.46682002225187e-07,-1.24386245527122e-15,-0.0053364402689222
9000000000,2,0.013716,0.002032,-0.000383132560607119,9.35621293936881e-14,-0.999822994490059,-6.93532914120543e-14,9.15812570108562e-14,-1.68532014725057e-13,6.84251680593542e-16,-0.00280434625232955,-3.86882986766315e-16,9.4668202922786e-07,4.09845199371567e-16,-0.00533644026908244
9000000000,2,0.013716,0.004064,0.000398598776527397,1.59784185394753e-13,-0.999999999999979,7.26441116748504e-14,-1.04200665615299e-13,1.30732390898952e-14,-3.04865572817198e-15,-0.00281154088019761,-5.02579673846924e-16,-4.72365941128368e-07,9.26474217054142e-17,-0.0053335440363183
9000000000,2,0.013716,0.006096,-0.00039859877612776,1.23006741310836e-13,-1.00000000000004,1.86474355319324e-13,-1.9092077439353e-14,2.04358799828993e-13,-1.62979010162414e-15,-0.00281154088299539,-4.32596998227596e-15,4.72365162254053e-07,-1.86371570726955e-16,-0.00533354403645676
9000000000,2,0.013716,0.008128,0.000383132560921948,8.13523873846747e-14,-0.99982299449027,2.80825080867399e-13,-2.8373714644991e-13,2.37038427782267e-13,-2.97200953924119e-15,-0.00280434625239083,-1.30116923745207e-15,-9.46682052667741e-07,6.52536589430476e-17,-0.00533644026910389
9000000000,2,0.018288,0.002032,0.000617279857361684,1.36109598265769e-13,-1.62223190397265,-4.45669473928738e-14,5.84475830002876e-14,-3.34586821702864e-14,2.72510903417574e-15,-0.0045530801562644,4.80627206514847e-16,-2.98046232948263e-06,5.72624739029606e-16,0.00202069527417551
9000000000,2,0.018288,0.004064,0.000267855604795317,1.87011942818059e-13,-1.62096581646643,6.21179378351267e-15,-5.04883420625134e-15,1.20371307783614e-13,-6.64446116345183e-16,-0.00455862121446218,9.50010083424174e-16,3.39602407207606e-07,2.87905354427006e-16,0.0020353046527353
9000000000,2,0.018288,0.006096,-0.000267855604044115,1.67878032642449e-13,-1.62096581646646,2.06389078528203e-14,-4.94212159359287e-14,-8.43500071245059e-14,1.8862400570807e-15,-0.00455862121427329,-1.13866527997648e-15,-3.39602470771319e-07,6.67044429943877e-17,0.00203530465285351
9000000000,2,0.018288,0.008128,-0.000617279856930764,8.73197945227578e-14,-1.62223190397252,6.62456182148648e-14,8.52511815179754e-15,-3.32744002112009e-13,-2.08601793050689e-15,-0.00455308015554866,6.55158431520881e-16,2.98046317918193e-06,-4.15852739027445e-17,0.00202069527423172
9000000000,3,0.009144,0.004064,1,-0,-2.3207625400104e-05,-7.95375882616554e-13,-3.32203316818171e-13,6.32545580720375e-13,4.33116878967593e-16,1.66566624862324e-08,-1.74748955964051e-15,-0.00344739853423571,-9.21118438184499e-16,-0.0014138170657393
9000000000,3,0.004572,0.002032,0.61808667429215,-1.81998235032261e-13,-0.00012895153788543,-8.72194730160882e-13,-2.39724107996751e-13,2.61570055968251e-13,-5.53114776429572e-15,-6.92877282026215e-09,-2.49248046685957e-15,-0.00213114465520312,3.15250548843002e-16,-0.00370139153635217
9000000000,3,0.004572,0.004064,0.999994892688866,-2.559268016931e-13,-6.32437824171094e-05,-6.91229421179597e-13,-1.70566996807928e-13,4.18982160858156e-13,3.80932544842757e-15,-1.34592586114367e-07,-1.5036576847636e-15,-0.00344735407242282,7.87175510591631e-16,-0.00141378126446077
9000000000,3,0.004572,0.006096,0.999994892688887,-2.5264607868458e-13,6.32437819563474e-05,-4.47876074418576e-13,-4.99969921125752e-13,3.38419484722161e-13,9.47647214914757e-16,1.34592207390072e-07,-9.21852190875534e-16,-0.00344735407210275,1.21457604251187e-15,0.00141378126456198
9000000000,3,0.004572,0.008128,0.618086674292241,-1.59938252437393e-13,0.000128951537448011,-2.00792975786828e-13,-1.44869508036514e-13,3.55303312983728e-13,2.60505791055342e-15,6.92699667508467e-09,-6.45856045391155e-16,-0.00213114465532741,1.49740907045709e-15,0.00370139153630557
9000000000,3,0.009144,0.002032,0.618027301417079,9.35862439212048e-15,-1.5834607795021e-06,-9.83339570807969e-13,-2.6918501849103e-13,4.24943640952791e-13,3.22683351670183e-15,8.3444380174137e-09,1.79780041724812e-15,-0.00213053440583795,-9.93519965712016e-16,-0.00370143919191983
9000000000,3,0.009144,0.006096,0.999999999999961,-3.81778933299181e-14,2.32076251087934e-05,-4.52567989974083e-13,-6.63132034681499e-13,7.69564888103868e-13,1.54567635173576e-15,-1.6655108740146e-08,-3.87126613275873e-17,-0.00344739853524437,-7.97115837786316e-16,0.00141381706574325
9000000000,3,0.009144,0.008128,0.618027301417091,-2.22659918000361e-14,1.5834605166384e-06,-2.22065967792612e-13,-5.28810851790407e-13,1.25661737566263e-13,4.71609327063006e-15,-8.34449069625769e-09,6.7779018915782e-16,-0.00213053440569236,-6.83715819846724e-16,0.00370143919192272
9000000000,3,0.013716,0.002032,0.618027301417023,1.29254994365006e-13,1.58346157164428e-06,-4.10695050079716e-13,-3.11843643470032e-13,5.08996411559212e-13,-1.26820451277968e-15,-8.3445182824719e-09,-8.24414718904419e-16,-0.00213053440587535,-1.52153198884672e-15,-0.00370143919195731
9000000000,3,0.013716,0.004064,0.999999999999903,1.90763231313862e-13,2.32076256740627e-05,-2.31657840825362e-13,-4.82061107593374e-13,8.46163148428291e-13,4.4980306082091e-15,-1.6657718156379e-08,1.83164864991724e-15,-0.003447398534003,-2.13888415429215e-15,-0.00141381706575698
9000000000,3,0.013716,0.006096,0.999999999999906,1.6815339622302e-13,-2.32076253236505e-05,3.85248298388428e-14,-4.86940098872075e-13,9.04458557289454e-13,-2.48068473569064e-15,1.6654995062322e-08,7.95480022534539e-16,-0.00344739853499227,-2.39486980987986e-15,0.00141381706570237
9000000000,3,0.013716,0.008128,0.618027301417051,1.10281261077389e-13,-1.58346115735282e-06,2.73036025759681e-13,-2.6860167810115e-13,4.65353815893032e-13,-3.42409280780799e-16,8.34449853148419e-09,3.03688767419445e-16,-0.00213053440565268,-2.49930283120174e-15,0.0037014391918934
9000000000,3,0.018288,0.002032,0.618086674292019,2.6364090913241e-13,0.00012895153849644,1.12279847551798e-13,1.16287182732937e-13,2.27477185595831e-13,-7.54218813906826e-15,6.92913215499898e-09,1.92109399681609e-15,-0.00213114465548838,9.48059750567474e-16,-0.00370139153628722
9000000000,3,0.018288,0.004064,0.999994892688553,4.406235550251e-13,6.32437826749894e-05,2.87906680343647e-13,-2.81937221054366e-13,5.78354689757526e-13,-1.40834363241004e-15,1.34592512777035e-07,1.40410766964389e-16,-0.00344735407228783,2.28731756066044e-16,-0.00141378126453307
9000000000,3,0.018288,0.006096,0.999994892688561,4.26604300215409e-13,-6.32437820719157e-05,4.32853638273777e-13,-1.78339542403078e-13,4.07791190633377e-13,7.93956910654389e-16,-1.34592274254813e-07,3.50160678734998e-16,-0.00344735407233129,-6.82740034182711e-16,0.00141378126447509
9000000000,3,0.018288,0.008128,0.618086674291969,2.51095458482686e-13,-0.000128951537786346,5.6819734445129e-13,-4.76190924605378e-13,1.2166204752187e-13,1.57836884158677e-16,-6.92711804427135e-09,1.12756476933209e-15,-0.00213114465494977,-1.02829191590106e-15,0.00370139153640863
9000000000,4,0.009144,0.004064,1,0,-0.444624170258455,7.68985981913414e-08,6.51015125575233e-08,-2.6064894262396e-07,6.44518903259115e-11,-0.00175505843514654,-1.64056641072274e-10,-0.00395677840330377,-4.84424476701608e-11,-0.00169410753027392
9000000000,4,0.004572,0.002032,1.61816579439078,-9.31536419224157e-12,-0.718614257400513,1.24417473597974e-07,2.48705143020567e-08,-9.95725549646882e-08,1.04265534455152e-10,-0.00283907956512076,-2.65455234288895e-10,-0.00640062520316412,-3.31838309463377e-10,-0.0116052146624856
9000000000,4,0.004572,0.004064,2.61742849757483,-8.7898985853918e-11,-0.274783298313475,4.75022106126399e-08,4.02350043087106e-08,-1.61089798960098e-07,3.97024781978005e-11,-0.00108417624739452,-4.29170712006234e-10,-0.0103460443216189,-1.26741671598689e-10,-0.00443249510301636
9000000000,4,0.004572,0.006096,2.61742849757487,-8.78853698973945e-11,0.274783298313781,-4.75027831371376e-08,4.02353622794213e-08,-1.61089975314544e-07,-3.96992330781525e-11,0.0010841762475379,-4.29166867038147e-10,-0.0103460443214074,1.26743031063531e-10,0.00443249510305234
9000000000,4,0.004572,0.008128,1.61816579439101,-9.28075466969812e-12,0.718614257400966,-1.2441799945433e-07,2.48702039777715e-08,-9.9572783512258e-08,-1.04262619784967e-10,0.00283907956994103,-2.65459568620978e-10,-0.00640062520525561,3.31839328895748e-10,0.0116052146611097
9000000000,4,0.009144,0.002032,0.617063283028804,-3.25147035500362e-11,-1.16309543912811,2.01445424973008e-07,4.02339634632428e-08,-1.61084094622531e-07,1.68529632927629e-10,-0.00459766539624839,-1.01134678844296e-10,-0.00243832103881111,-1.26714599212939e-10,-0.00443147836275009
9000000000,4,0.009144,0.006096,1.00000000000006,1.10963131475374e-13,0.444624170258486,-7.6898815016644e-08,6.51015057493046e-08,-2.60648985823269e-07,-6.44434491247263e-11,0.00175505843137016,-1.64059971754852e-10,-0.00395677839913631,4.84401431090945e-11,0.00169410753074098
9000000000,4,0.009144,0.008128,0.617063283028759,-3.24910812941879e-11,1.16309543912797,-2.01445731399359e-07,4.0233072535992e-08,-1.61084283364767e-07,-1.68512788009174e-10,0.00459766539669037,-1.01135198187975e-10,-0.00243832103929023,1.2671221888034e-10,0.00443147836276077
9000000000,4,0.013716,0.002032,-0.617063283029335,3.24282715159207e-11,-1.16309543912753,2.0144591670318e-07,4.02340126452293e-08,-1.61084604767016e-07,1.6852395544098e-10,-0.00459766539589088,1.01133605216841e-10,0.0024383210386176,1.26711622674676e-10,0.00443147836312113
9000000000,4,0.013716,0.004064,-1.00000000000094,-1.36412733518657e-13,-0.444624170258085,7.68991363622916e-08,6.51012176712983e-08,-2.60648826818977e-07,6.44486812563571e-11,-0.001755058429824,1.64047591511683e-10,0.00395677840039635,4.84399174048866e-11,0.00169410752999982
9000000000,4,0.013716,0.006096,-1.00000000000099,-2.07918413278099e-13,0.444624170258637,-7.68984913359182e-08,6.51011455276275e-08,-2.6064956985362e-07,-6.44471055971266e-11,0.00175505843808806,1.64056785153217e-10,0.00395677840690659,-4.84420276301855e-11,-0.00169410752964771
9000000000,4,0.013716,0.008128,-0.61706328302936,3.24513403162929e-11,1.16309543912794,-2.01445413137641e-07,4.02335556351623e-08,-1.61084962322237e-07,-1.68513022684718e-10,0.00459766539637258,1.01133304593226e-10,0.00243832103868839,-1.26713767067123e-10,-0.00443147836291693
9000000000,4,0.018288,0.002032,-1.61816579439152,9.32056109567828e-12,-0.718614257399856,1.24418235648436e-07,2.48701680099373e-08,-9.95727635825554e-08,1.04282104740143e-10,-0.00283907957189683,2.65459905774224e-10,0.00640062520541084,3.31839334344789e-10,0.0116052146615097
9000000000,4,0.018288,0.004064,-2.61742849757561,8.79442969440367e-11,-0.274783298312895,4.75029707663271e-08,4.02346641365828e-08,-1.61089668917498e-07,3.9698547689754e-11,-0.0010841762498619,4.29171035891669e-10,0.010346044321807,1.26743508347116e-10,0.00443249510352703
9000000000,4,0.018288,0.006096,-2.61742849757556,8.79798456423952e-11,0.274783298313963,-4.75022018746752e-08,4.02349891914389e-08,-1.61089992304851e-07,-3.97011808008547e-11,0.0010841762482022,4.29170955103306e-10,0.01034604432107,-1.26741913256594e-10,-0.00443249510335559
9000000000,4,0.018288,0.008128,-1.61816579439126,9.36055024706059e-12,0.718614257400746,-1.24417447278359e-07,2.48699822973745e-08,-9.95721678479959e-08,-1.04270718979646e-10,0.00283907956514527,2.65458250845831e-10,0.00640062520411904,-3.31838348712848e-10,-0.0116052146614104
9000000000,5,0.009144,0.004064,-0.109703480849862,-3.88401139262592e-09,-0.246251571022495,1.7269147145554e-09,1,-0,-6.81585048451779e-12,0.000439813005802644,-1.53684608769933e-11,-0.000195346220971065,-6.5798837473571e-12,-1.05696550164914e-11
9000000000,5,0.004572,0.002032,-0.177481648434995,-6.28500093447488e-09,-0.398504631397075,2.79110178618435e-09,0.382017627534914,-1.67657032559403e-14,-1.10253325445734e-11,0.000711514825856005,-2.48605844710808e-11,-0.000316290622984016,-4.50749097504012e-11,-7.24066885026e-11
9000000000,5,0.004572,0.004064,-0.286802054773078,-1.0166163808564e-08,-0.15210268007217,1.0672494664371e-09,0.618033798970119,7.11640297448127e-15,-4.21100868674337e-12,0.000271248135025763,-4.01843275208705e-11,-0.000511556905058219,-1.72159400764142e-11,-2.76549312471892e-11
9000000000,5,0.004572,0.006096,-0.28680205477309,-1.01661675052692e-08,0.152102680072001,-1.06727228019578e-09,0.618033798970143,-1.11755271901357e-14,4.21124179074091e-12,-0.000271248135034439,-4.01848711945743e-11,-0.000511556904794766,1.72159269779773e-11,2.76551480985412e-11
9000000000,5,0.004572,0.008128,-0.177481648435048,-6.28500637638227e-09,0.398504631397258,-2.79113512812174e-09,0.38201762753496,6.6879932038154e-14,1.10261160231791e-11,-0.00071151482620312,-2.48603580794756e-11,-0.000316290623552619,4.5074917445059e-11,7.2406830752329e-11
9000000000,5,0.009144,0.002032,-0.0675691703702712,-2.3966833489956e-09,-0.645267491956967,4.51748601727898e-09,0.618014602703714,-1.03766246175353e-13,-1.78576832401444e-11,0.00115092901053616,-9.47069810268332e-12,-0.000120520867082538,-1.72120307384801e-11,-2.7648727764507e-11
9000000000,5,0.009144,0.006096,-0.109703480849727,-3.88402066686804e-09,0.246251571022334,-1.72695955543736e-09,1.00000000000006,4.37425136387928e-14,6.81514318522378e-12,-0.000439813005834173,-1.53683613426951e-11,-0.000195346221180147,6.5799961382464e-12,1.05699210206311e-11
