#frequency,mode,x,y,Ex_re,Ex_im,Ey_re,Ey_im,Ez_re,Ez_im,Hx_re,Hx_im,Hy_re,Hy_im,Hz_re,Hz_im
9e+09,1,0.009144,0.004064,2.48723016081632e-06,5.41938198810924e-15,1,-1.47743539468436e-30,-5.03323040988323e-15,-8.9462911811265e-14,-0.00181936845069581,4.84646155473981e-17,2.79420816194688e-09,3.4500261019369e-17,-4.53421279614376e-18,0.000628374544805467
9000000000,1,0.004572,0.002032,-1.3348867762759e-07,9.70090931231112e-16,0.618034543334211,7.5109481217577e-15,-2.98104089795123e-16,-5.62929364652382e-14,-0.00112442673219046,-2.99119777307079e-17,2.51632882932638e-10,1.50430229877526e-17,-2.45468636425777e-17,0.00164510256744969
9000000000,1,0.004572,0.004064,6.68333257971984e-08,1.40364253077465e-15,0.618034404067308,7.71970087928238e-15,-6.48968591512793e-16,2.81023934176792e-14,-0.00112442659397464,-6.54890687108503e-18,-3.33622587580206e-10,1.17744682856209e-18,-2.61058703156475e-17,0.00164510338177878
9000000000,1,0.004572,0.006096,5.59630980122655e-07,4.69767721855075e-16,0.618034201264746,5.24096850701953e-15,-7.67431534953896e-16,6.32490497694992e-14,-0.00112442671925799,-2.13110577735875e-17,7.32637283008124e-10,3.90799326597163e-18,-1.09450842829162e-17,0.0016451023163381
9000000000,1,0.004572,0.008128,-1.0094347634145e-06,2.95032636964343e-16,0.618032784887668,6.64894171121343e-15,-5.43820306307873e-16,7.26744277019627e-15,-0.00112442072754576,8.27796224427835e-18,-2.391737870854e-09,-7.30595198876892e-18,-4.10687148715572e-18,0.00164509980320803
9000000000,1,0.009144,0.002032,4.56371188053684e-08,1.17044110602572e-14,1.00000057437965,2.6602964174903e-14,-1.40677818505858e-15,-1.19911114992229e-13,-0.00181936032648375,-8.84350460992687e-17,2.02324193921494e-10,2.19708331721832e-17,-1.48288193517473e-17,0.000628373026727346
9000000000,1,0.009144,0.006096,-2.64377140426134e-06,-1.86866614810734e-16,1.00000080283471,7.74259411251145e-15,-1.55745284731215e-15,4.04012142748151e-16,-0.00181937059207716,-1.41648552546123e-17,-3.76109355806128e-09,3.17683173585369e-19,-9.60649713738609e-18,0.000628374391600071
9000000000,1,0.009144,0.008128,-3.30189132836595e-08,-6.55876416519173e-16,1.00000039772595,9.29855409558427e-15,-5.7356419733081e-16,4.18532943341559e-14,-0.00181936015362188,-2.26871297504431e-17,-6.84487043299607e-10,-6.91652093581764e-18,-1.79313325573131e-17,0.000628373138583939
9000000000,1,0.013716,0.002032,-3.2763027650051e-08,2.10703034199391e-15,1.0000005208892,1.05559926070232e-14,1.05311369928863e-16,1.0295566141996e-13,-0.00181936021121936,-3.515263593215e-17,-2.93719968858179e-10,6.2742063503507e-18,1.77711827198812e-17,-0.00062837318953837
9000000000,1,0.013716,0.004064,-2.35410619044515e-06,-1.81271242136515e-15,1.00000134123576,7.73196277524072e-15,4.45787293983778e-16,-3.57241123988221e-14,-0.00181936991463924,-2.17790440702766e-17,-4.50332081562802e-09,-4.61289561378797e-18,6.17431522565912e-18,-0.000628374217980787
9000000000,1,0.013716,0.006096,1.92561404188065e-06,-1.73819160502642e-15,1.00000136154354,1.16857127022077e-14,4.69878825993893e-16,5.37656788661344e-14,-0.00181937137999219,-1.92434548511943e-17,6.90160419586937e-09,-4.14742130925139e-18,4.26270143558772e-18,-0.000628374656197319
9000000000,1,0.013716,0.008128,4.55485262265751e-07,-5.63927297083458e-16,1.00000076764519,1.30930887680599e-14,5.36289794214553e-16,9.7707266033632e-14,-0.00181936352180352,-2.69391961459529e-17,5.74639027386766e-11,-1.00394721624821e-17,7.16165312072223e-18,-0.000628374091457481
9000000000,1,0.018288,0.002032,-2.03900912389012e-07,1.41182353382366e-15,0.618034359087669,7.39196923663917e-15,7.77144336142885e-16,4.84737051532276e-14,-0.00112442740395874,-1.87783758564631e-17,-2.46742142700581e-10,-4.64003157840054e-18,1.68193699655279e-17,-0.00164510349915377
9000000000,1,0.018288,0.004064,5.60704139408011e-07,1.67093544613922e-15,0.618034205275658,8.36694591091958e-15,1.51561603147883e-15,-2.98740387076854e-14,-0.00112442670513953,-9.51114650379868e-18,7.33864940795167e-10,-4.32400450446259e-18,2.21081733347718e-17,-0.0016451023053622
9000000000,1,0.018288,0.006096,7.36547192227798e-08,6.2082450102874e-15,0.618034403248226,1.19044477520982e-14,1.72827947326427e-15,-2.13254258390585e-14,-0.00112442670854945,-4.15434178957955e-17,-5.67361792282888e-10,-1.17393865959168e-17,-2.00464405619564e-18,-0.00164510353861704
9000000000,1,0.018288,0.008128,-5.8763678214174e-07,-1.72570663838471e-15,0.618033838329728,9.11042536246948e-15,2.88477596062416e-16,6.60171616374091e-14,-0.00112442583373197,-3.39761276906151e-17,-1.5932265441815e-09,1.03750136915678e-17,1.86509824551809e-17,-0.00164509989908828
10000000000,1,0.009144,0.004064,1.94327460578869e-06,6.42447824546327e-15,1,-0,-6.40526096640544e-15,2.6606045862737e-14,-0.00200517535915092,-2.55108531968419e-17,7.79890458306776e-09,-5.48217782796584e-17,1.26809283344845e-17,0.000565536528131197
10000000000,1,0.004572,0.002032,-5.69451591598921e-07,8.51033931182754e-15,0.61803289845678,1.41916023310484e-14,-3.5041825835386e-15,-1.46550612189559e-14,-0.00123925831244927,-6.37261661281344e-17,-1.24849363271048e-09,2.10755411283595e-17,-5.60378914589259e-17,0.00148058770044603
10000000000,1,0.004572,0.004064,8.0019865041252e-08,1.09423373304824e-14,0.618033591081751,6.20910436283324e-15,-7.49500850452179e-15,4.87561558592703e-14,-0.00123925935781525,-2.20318077377984e-17,-6.69325771682902e-10,1.05271923838539e-18,-5.82133249452723e-17,0.00148059112896682
10000000000,1,0.004572,0.006096,1.68713573033569e-07,6.39232727457877e-15,0.618032959505442,1.82681161975565e-14,-1.24148525994375e-14,3.42513382881487e-14,-0.00123925396874361,-1.04279093950601e-17,4.92308275414729e-10,2.9323314980509e-17,-2.78051806774269e-18,0.00148058628253453
10000000000,1,0.004572,0.008128,1.10698589564746e-06,-4.98699296566684e-15,0.618034079911941,1.08552128115395e-14,-6.03192694030618e-15,2.26081165803046e-14,-0.00123925965981442,2.05129758746671e-17,-9.29093347898471e-10,7.35011218955299e-18,6.78171920672284e-18,0.00148058775582633
10000000000,1,0.009144,0.002032,4.57600703433033e-07,7.39474663560364e-15,0.99999945636412,2.09567613006429e-14,-6.20882091514267e-15,-1.37140098430122e-14,-0.00200516691258681,-1.08449097121824e-16,6.12025049854462e-11,-6.47233053307788e-17,1.76987292227174e-17,0.000565535938546322
10000000000,1,0.009144,0.006096,-2.29620098012099e-06,6.06549672561695e-14,1.00000025165411,-6.57211874614781e-14,-4.37322185606149e-15,4.44814987543486e-14,-0.00200517636332788,-7.31472583398498e-18,-8.33518887346996e-09,-2.42923755293704e-17,2.26811515457449e-17,0.000565536248870298
10000000000,1,0.009144,0.008128,-3.04963683511996e-08,6.49066355545043e-15,0.999998991256549,5.06181322797192e-15,-4.98364359120639e-15,7.94927268601877e-14,-0.00200516306653065,6.77821461160697e-18,-1.22522597616952e-09,-1.55174255822769e-17,3.73519232204194e-17,0.00056553522044865
10000000000,1,0.013716,0.002032,-1.36622227219188e-06,-2.65726044018425e-15,0.999999206969383,6.20184422016356e-15,3.25155486814474e-16,-6.9619649794424e-14,-0.00200517050995059,-3.23873660409319e-17,-7.26884132014504e-10,-1.62014022115377e-17,2.11191608262952e-17,-0.000565535486845307
10000000000,1,0.013716,0.004064,-2.64002619584874e-06,-1.63093034097082e-14,0.999999475450626,-3.64551934635649e-15,1.86043687297977e-16,3.5160227864189e-15,-0.00200517434615581,-2.66982174507894e-17,-4.29186377477848e-09,-2.31508074124842e-17,4.27141711584265e-17,-0.000565536176614105
10000000000,1,0.013716,0.006096,1.93314580425705e-06,-5.0085746620755e-15,1.00000001806206,-3.64324419595475e-15,-1.18980167674936e-15,2.68858210364936e-14,-0.00200517543558183,-5.20657636344337e-19,7.80279107644572e-09,-1.32946760261843e-17,2.26576637808464e-17,-0.000565536434521518
10000000000,1,0.013716,0.008128,5.53672001991803e-08,-2.7214694758991e-15,0.999999016319229,-5.98318931128908e-15,-1.03707581465131e-15,8.97172778141568e-14,-0.00200516314101203,1.13242259940242e-17,1.23339815142185e-09,-3.95700149178854e-18,2.45189433270402e-17,-0.00056553521938177
10000000000,1,0.018288,0.002032,-1.03329805914923e-06,-7.79715700985191e-18,0.618031849215363,-3.47680679770135e-15,-1.45209175763247e-16,2.627369557713e-14,-0.00123925243032028,-4.64103528600554e-18,-2.54122581132302e-09,-4.0965730506184e-18,2.72778201171391e-18,-0.00148058786145621
10000000000,1,0.018288,0.004064,5.41502758007474e-07,-3.69718001822898e-15,0.618033372157775,-9.44842463462866e-16,-5.83016590054902e-17,-2.17340704379201e-14,-0.00123925933487062,-4.29663611875624e-19,7.58978964085056e-10,-1.12583439192378e-17,-4.90287954003839e-18,-0.00148059037308902
10000000000,1,0.018288,0.006096,6.93904095165503e-08,-1.46881197159857e-15,0.61803359240257,-2.52371892542986e-15,-4.29273274120403e-16,-2.40887160820689e-14,-0.00123925924049789,-7.90487354314442e-19,-3.31952711486615e-10,-1.21640635026871e-17,-1.87002978496262e-18,-0.00148059114934033
10000000000,1,0.018288,0.008128,-1.07358505970817e-07,1.84438539325174e-16,0.618033598235851,-4.53404820553437e-15,-1.12400061325817e-16,6.91087647162552e-14,-0.0012392592301997,7.00355094316136e-18,4.31167150417571e-10,-2.27398011753292e-18,1.73355167882099e-17,-0.0014805903142521
