! 2-port S-parameter data
! S-port 1 net1
! S-port 2 net2
# GHz S DB R 50
!freq dBS11 angS11 dBS21 angS21 dBS12 angS12 dBS22 angS22
0.6 -0.018668685090106 -36.8484868164466 -46.7027695552673 52.9273060972894 -46.7027695552673 52.9273060972894 -0.017402317096364 -36.8163075096846
0.65 -0.020768728134318 -40.1403387347751 -46.4049844505856 49.6244155583822 -46.4049844505856 49.6244155583822 -0.0201977809325815 -40.1007291650385
0.7 -0.023210250401911 -43.4952308603224 -46.232915735775 46.2633796244351 -46.232915735775 46.2633796244351 -0.0225983893977637 -43.4508312439546
0.75 -0.0258875721592551 -46.9186976029715 -46.1967372308605 42.8403160419554 -46.1967372308605 42.8403160419554 -0.0252322753101029 -46.8690233698712
0.8 -0.0288345086966462 -50.4194759560481 -46.3143577465406 39.3478246355359 -46.3143577465406 39.3478246355359 -0.0281327875362592 -50.3639645691866
0.85 -0.0320909347503804 -54.0074322043634 -46.6147996449721 35.7746694673512 -46.6147996449721 35.7746694673512 -0.0313392692111343 -53.9454294357022
0.9 -0.0357043585630201 -57.6937914858693 -47.1452035893648 32.1030419423675 -47.1452035893648 32.1030419423675 -0.034898635993021 -57.6245367408922
0.95 -0.0397318164426159 -61.4914245682877 -47.9851348617436 28.3123218977967 -47.9851348617436 28.3123218977967 -0.0388672487503147 -61.4140252301135
1 -0.0442422015347015 -65.4152111519415 -49.2761009811928 24.395538009063 -49.2761009811928 24.395538009063 -0.043313258713968 -65.3286138977021
1.05 -0.0493195590043982 -69.4825077015293 -51.2971470815961 20.3769717833069 -51.2971470815961 20.3769717833069 -0.0483198312018619 -69.3854611573147
1.1 -0.0550677824587444 -73.7137528091038 -54.7364928617792 16.3553822451041 -54.7364928617792 16.3553822451041 -0.0539897402065307 -73.6047534140568
1.15 -0.061616781329885 -78.1332654302816 -62.4337399948281 13.0985740307361 -62.4337399948281 13.0985740307361 -0.0604515764933599 -78.0104966199162
1.2 -0.0691306846754735 -82.77031753534 -65.8071533417527 -176.744354596502 -65.8071533417527 -176.744354596502 -0.0678678247046413 -82.6315542949254
1.25 -0.0778192400668383 -87.6606072187983 -54.1804630831866 -179.397443159418 -54.1804630831866 -179.397443159418 -0.0764461815367564 -87.503092550138
1.3 -0.0879541475608095 -92.8483304708383 -49.0463407263343 175.771125120474 -49.0463407263343 175.771125120474 -0.0864556783335093 -92.668596792246
1.35 -0.0998933919661443 -98.3891776007452 -45.7777069918695 170.414141151963 -45.7777069918694 170.414141151963 -0.0982507003366853 -98.1827931845629
1.4 -0.114119882057664 -104.354818780336 -43.6059395176354 164.651860041451 -43.6059395176354 164.651860041451 -0.112309058818634 -104.1160084441
1.45 -0.131309195273706 -110.839896492515 -42.4382678226301 158.538953368181 -42.4382678226301 158.538953368181 -0.129298703878887 -110.560971775289
1.5 -0.152465507438438 -117.973476351017 -42.7045738279437 152.339434536246 -42.7045738279437 152.339434536246 -0.15021152534259 -117.643926316503
1.55 -0.179240460243031 -125.938931571808 -46.5896135966413 148.384934249835 -46.5896135966413 148.384934249835 -0.176677757411759 -125.54393140291
1.6 -0.214805349957143 -135.010946169447 -50.4942345429931 -66.0395500244971 -50.4942345429931 -66.0395500244971 -0.211827836963295 -134.528769125359
1.65 -0.266589567913431 -145.629970688218 -34.0247388929982 -63.3388889866314 -34.0247388929982 -63.3388889866314 -0.26300464823093 -145.027192679062
1.7 -0.356033287331476 -158.564472284067 -25.0344216425543 -74.9691392757593 -25.0344216425543 -74.9691392757593 -0.351441616288012 -157.786300743885
1.75 -0.557799683952608 -175.282542176208 -17.6106415361441 -91.6459577406876 -17.6106415361441 -91.6459577406876 -0.551226817674144 -174.230940907809
1.8 -1.17272697655314 161.308309719464 -10.8227348628124 -115.691111947715 -10.8227348628124 -115.691111947715 -1.16122728808711 162.832955911453
1.85 -3.41188276183325 127.210490611965 -5.02824971824209 -151.432435902453 -5.02824971824209 -151.432435902453 -3.38313129694596 129.710791324105
1.9 -10.5088780683925 88.3993247467246 -1.81101469559525 164.597952181383 -1.81101469559524 164.597952181383 -10.363402824177 93.8006932992941
1.95 -28.8736884831532 135.999707357214 -1.01720521322657 127.413339485901 -1.01720521322657 127.413339485901 -24.8069343699846 135.628903065674
2 -18.047983224835 -177.001475740633 -0.913041549577705 99.7011064611663 -0.913041549577702 99.7011064611663 -17.71864107343 176.682312109672
2.05 -16.8196642844205 165.3011985877 -0.85228715901485 77.2917120676911 -0.852287159014849 77.2917120676911 -16.6630259155048 161.454743695072
2.1 -18.4696671219794 146.719794219359 -0.773402836652669 57.6800670788488 -0.773402836652667 57.6800670788488 -18.3323975664686 143.666071685557
2.15 -22.1612554626057 127.800048049713 -0.705019588620651 39.82030982861 -0.705019588620651 39.82030982861 -21.9889488634478 125.022259040766
2.2 -28.9452460042486 104.307644464536 -0.663117694892335 23.2669121292294 -0.663117694892332 23.2669121292294 -28.6113966859742 101.64000707241
2.25 -40.5437842600786 2.11349804937824 -0.646365058276814 7.77203433563694 -0.646365058276814 7.77203433563694 -40.2656815178695 7.24391244789506
2.3 -30.3076067165773 -70.8135649774375 -0.64621071526196 -6.85896159028593 -0.64621071526196 -6.85896159028587 -30.5834067094145 -71.8880562038364
2.35 -26.5568107495104 -89.2536257633963 -0.654280024775374 -20.8033726315146 -0.654280024775372 -20.8033726315146 -26.7595051143037 -91.3694832932445
2.4 -25.2113715515855 -102.12902336408 -0.66527169753359 -34.221640042894 -0.665271697533593 -34.2216400428939 -25.4101942576731 -104.932338691772
2.45 -25.0752814663335 -112.512649724339 -0.67704036438662 -47.2525181664413 -0.677040364386616 -47.2525181664413 -25.3141312197242 -116.121647693259
2.5 -25.7173613270431 -120.884998404206 -0.689559156050147 -60.0118711177026 -0.689559156050147 -60.0118711177026 -26.0516724149653 -125.579955406959
2.55 -26.8852880142864 -127.272116380147 -0.703762815560378 -72.5957987852573 -0.703762815560377 -72.5957987852573 -27.4057930855926 -133.437151068641
2.6 -28.3286894767806 -131.982411288493 -0.720720444431577 -85.0864764022573 -0.720720444431577 -85.0864764022573 -29.1778289073006 -140.000782729477
2.65 -29.7497503469539 -136.624667482491 -0.741272603177472 -97.5588646413567 -0.741272603177471 -97.5588646413567 -31.0871755168436 -146.770907782351
2.7 -30.8743362660151 -145.005949863508 -0.766098480973814 -110.086760125757 -0.766098480973813 -110.086760125757 -32.7138529781515 -157.857998885755
2.75 -31.3965316032652 -162.091933246166 -0.796078040908669 -122.747109220449 -0.79607804090867 -122.747109220449 -33.2923963528103 -178.905325997664
2.8 -30.6125258638191 170.987875075908 -0.832741616123129 -135.622060967338 -0.832741616123128 -135.622060967338 -31.7199136453311 152.174243470163
2.85 -28.1582588805754 142.145317438842 -0.878540904247286 -148.799002044521 -0.878540904247286 -148.799002044521 -28.4404661485975 126.463856977515
2.9 -25.0194075474888 118.345013387641 -0.936639132170872 -162.370030840992 -0.936639132170873 -162.370030840992 -24.9700264178485 106.750155768342
2.95 -22.1381470903671 99.108120730761 -1.00996048314488 -176.434330042666 -1.00996048314489 -176.434330042665 -22.010880647929 90.3691560508283
3 -19.8763846475088 82.3896323791653 -1.09950031872443 168.890057715917 -1.09950031872443 168.890057715917 -19.7501185322795 75.4023792459685
3.05 -18.4016101833692 67.0452727715695 -1.20264410231096 153.434637432572 -1.20264410231096 153.434637432572 -18.2996981655525 61.0500939923694
3.1 -17.9724600978576 53.0062054001719 -1.31398359091382 136.914964320748 -1.31398359091382 136.914964320748 -17.9115886014826 47.3796597898744
3.15 -19.2888678906996 42.7383894901066 -1.43512410714671 118.818460636289 -1.4351241071467 118.818460636289 -19.3351194739591 36.6136676047965
3.2 -23.96914595787 58.816923819952 -1.60917045447816 98.2662663961399 -1.60917045447816 98.2662663961399 -24.8233860490814 51.4893770671556
3.25 -17.9924251548572 121.997930534703 -2.00795709230405 74.0614405038843 -2.00795709230405 74.0614405038843 -18.3616522236143 123.739119866051
3.3 -9.6553954057387 112.631730990815 -3.04843623175863 45.6991057965368 -3.04843623175864 45.6991057965368 -9.69855683537753 112.755248757463
3.35 -5.06931853292277 88.3305965438912 -5.22853133361136 15.6588630920334 -5.22853133361136 15.6588630920334 -5.061522227298 87.8855264565945
3.4 -2.78448466430957 64.0946922140882 -8.52262374349571 -11.3131447131612 -8.52262374349572 -11.3131447131612 -2.76312965297124 63.436990245612
3.45 -1.72823296597754 44.0976967070547 -12.4034118873216 -32.9595463574371 -12.4034118873216 -32.9595463574371 -1.70284022193111 43.3571129507604
3.5 -1.22432477214254 28.2458287706277 -16.4430690966738 -49.9890516944339 -16.4430690966738 -49.9890516944339 -1.19812847688262 27.4779615899553
3.55 -0.95830371558064 15.4349611173856 -20.4538213251242 -63.7842013939473 -20.4538213251242 -63.7842013939473 -0.932562299068145 14.6661615720081
3.6 -0.800094797274153 4.74121484887224 -24.3627281182229 -75.4399297985922 -24.3627281182229 -75.4399297985921 -0.775317144481616 3.98489486218881
3.65 -0.695357678878898 -4.45483262336879 -28.1115287932688 -85.7108628076538 -28.1115287932688 -85.7108628076539 -0.671732966762701 -5.19118443396323
3.7 -0.619939085818611 -12.5576018824383 -31.5919866613753 -95.1161548839342 -31.5919866613753 -95.1161548839341 -0.597497129446136 -13.2686724120825
3.75 -0.562366388628285 -19.8418328193972 -34.5736607575229 -104.030036060949 -34.5736607575229 -104.030036060949 -0.540970849022515 -20.5211206685882
3.8 -0.518349002357656 -26.5201387104727 -36.5409967787771 -113.203304850833 -36.5409967787771 -113.203304850833 -0.497068100664519 -27.1522969953064
3.85 -0.51497854725165 -32.8074682242292 -36.3363132338546 -132.559122537617 -36.3363132338546 -132.559122537617 -0.482031361319852 -33.3551899811973
3.9 -0.505653308025984 -37.8924816222164 -42.0403505480606 -168.001323776803 -42.0403505480606 -168.001323776803 -0.468922102318855 -38.619285404562
3.95 -0.444951104196968 -43.2118340328146 -44.2514966709049 -154.409193592513 -44.2514966709049 -154.409193592513 -0.42056074368106 -43.9051896000422
4 -0.413731995015032 -48.2508210528316 -43.8951667501466 -151.96202500535 -43.8951667501466 -151.96202500535 -0.392713486665006 -48.9118358791314
4.05 -0.390499138936512 -53.0213021634055 -43.1835505695065 -152.992455574701 -43.1835505695065 -152.992455574701 -0.371171282480022 -53.6576272899936
4.1 -0.371315593885271 -57.5681414147836 -42.3599524710964 -155.059437059037 -42.3599524710964 -155.059437059037 -0.353122885844981 -58.1836944377463
4.15 -0.354866965712573 -61.9251610221139 -41.5204783701497 -157.577080387457 -41.5204783701497 -157.577080387457 -0.337549466263269 -62.5222406312445
4.2 -0.340501780152692 -66.1191204106059 -40.7152366063659 -160.347727136636 -40.7152366063659 -160.347727136636 -0.323908921700204 -66.6992435339175
4.25 -0.327816655432216 -70.1720150817627 -39.9671206513133 -163.275847162208 -39.9671206513133 -163.275847162208 -0.311848462008403 -70.7362617061178
4.3 -0.31652878158625 -74.1023654699341 -39.2833462143698 -166.303645037801 -39.2833462143699 -166.303645037801 -0.301112729085307 -74.6515355030274
4.35 -0.306425082383157 -77.9260396235907 -38.6628068953215 -169.392993687683 -38.6628068953215 -169.392993687683 -0.291505484258386 -78.4607327936998
4.4 -0.297337680290659 -81.6568299266785 -38.1003346028268 -172.518302681701 -38.1003346028268 -172.518302681701 -0.282870257283214 -82.1774929163377
4.45 -0.289130254334731 -85.3068847032811 -37.5889959080013 -175.662620952062 -37.5889959080013 -175.662620952062 -0.275079051047557 -85.8138355573262
4.5 -0.281689633397876 -88.8870471345773 -37.121246228151 -178.815130930897 -37.121246228151 -178.815130930897 -0.268025235237122 -89.3804934036071
