! 2-port S-parameter data
! S-port 1 net1
! S-port 2 net2
# GHz S DB R 50
!freq dBS11 angS11 dBS21 angS21 dBS12 angS12 dBS22 angS22
0.5 -0.0150740946359839 -32.081625815555 -45.9568586483641 57.9809524419296 -45.9568586483641 57.9809524419295 -0.0133109878384183 -31.8014696640904
0.55 -0.01598630041843 -35.4837516576301 -45.4441079058115 54.5883287924729 -45.4441079058115 54.5883287924729 -0.0162146331669014 -35.1723877974503
0.6 -0.0179810023525975 -38.9425088142914 -45.0633760841138 51.1388187141645 -45.0633760841138 51.1388187141645 -0.0181979925021818 -38.6030297441524
0.65 -0.0201530426394704 -42.4693543982372 -44.8160111072751 47.6244462100422 -44.8160111072751 47.6244462100422 -0.0203545491622296 -42.1018631283781
0.7 -0.0225275197226177 -46.0734286098705 -44.7102544927909 44.0376448422053 -44.7102544927909 44.0376448422053 -0.022709282265661 -45.6780593736897
0.75 -0.025133867299479 -49.7649828572595 -44.7626910167834 40.3705755585817 -44.7626910167834 40.3705755585817 -0.0252914965279743 -49.3419099041228
0.8 -0.028007026082609 -53.5556059374694 -45.0013015026626 36.6155210896804 -45.0013015026626 36.6155210896804 -0.0281360088335113 -53.1050550361417
0.85 -0.0311889452449654 -57.4585048814211 -45.4714937970955 32.7658696456091 -45.4714937970955 32.7658696456091 -0.0312846696619037 -56.9807682267231
0.9 -0.0347305335733136 -61.4888573002791 -46.2483431855029 28.8186220884957 -46.2483431855029 28.8186220884957 -0.0347883430457064 -60.9843133231039
0.95 -0.0386942227100085 -65.6642593751317 -47.4638583198935 24.7813985745514 -47.4638583198935 24.7813985745514 -0.0387095127754461 -65.1333990858048
1 -0.0431573636108997 -70.0053030057134 -49.3780828005899 20.6957797563915 -49.3780828005899 20.6957797563915 -0.0431257442444769 -69.4487655197395
1.05 -0.0482167605254623 -74.5363310811056 -52.6205260012962 16.7445984566932 -52.6205260012962 16.7445984566933 -0.048134319488289 -73.9549522749129
1.1 -0.0539947656016045 -79.2864428885273 -59.6052182419318 14.2831406408141 -59.6052182419318 14.2831406408141 -0.0538584904605808 -78.6813229434563
1.15 -0.0606475378340364 -84.2908590519481 -66.1450069312846 176.38913732191 -66.1450069312846 176.38913732191 -0.0604559912686082 -83.6634579058225
1.2 -0.0683763769248604 -89.5928181193474 -53.0130417306083 177.972419575125 -53.0130417306083 177.972419575125 -0.0681307845914179 -88.9450930604118
1.25 -0.0774436621476232 -95.2462848369824 -47.674630505266 173.265957421676 -47.674630505266 173.265957421676 -0.0771496882368746 -94.5808930561392
1.3 -0.088196432528354 -101.319945511123 -44.3831263312564 167.639250695526 -44.3831263312564 167.639250695526 -0.0878671358559176 -100.640550463995
1.35 -0.101104917347018 -107.903342914789 -42.3195811814079 161.446181902103 -42.3195811814079 161.446181902103 -0.10076580343779 -107.215090983944
1.4 -0.116836677845676 -115.116759569626 -41.4853456102255 154.8307132422 -41.4853456102255 154.8307132422 -0.116534633035504 -114.427048303834
1.45 -0.136431784712492 -123.128100869005 -42.751791659327 148.394076375918 -42.751791659327 148.394076375918 -0.136251572427219 -122.44786819478
1.5 -0.161803881949057 -132.183815529008 -52.9300267146112 154.762416958325 -52.9300267146112 154.762416958325 -0.161900331344819 -131.529813522872
1.55 -0.197400073936021 -142.670266494679 -39.0710090347818 -61.4696520974055 -39.0710090347818 -61.4696520974055 -0.198065510300847 -142.069323043188
1.6 -0.256375356559307 -155.246479223683 -27.8088761655929 -71.0140598471541 -27.8088761655929 -71.0140598471541 -0.258194699635618 -154.744133674618
1.65 -0.386189754345812 -171.152320717247 -19.6179165803844 -86.5419889845914 -19.6179165803843 -86.5419889845914 -0.390445664089413 -170.832234556892
1.7 -0.785680209217454 167.105774615965 -12.3871122971585 -108.763174323339 -12.3871122971585 -108.763174323339 -0.795624390179397 167.071283099941
1.75 -2.32613661290761 135.280450235116 -6.01207325913079 -142.074459565348 -6.01207325913079 -142.074459565348 -2.35234823482386 134.465050816449
1.8 -7.76268923494225 95.2020660088984 -1.96047290264685 173.478679262248 -1.96047290264685 173.478679262248 -7.86326052150019 92.1075022455511
1.85 -22.6410525914601 88.3560470844686 -0.798725038375805 133.092250227059 -0.798725038375805 133.092250227059 -24.745735515478 70.2906333912873
1.9 -18.9563218555573 177.701619420228 -0.67560140569499 103.351918877815 -0.675601405694989 103.351918877815 -19.2526483867756 -169.832489907194
1.95 -16.3613994895555 162.969148751297 -0.648357502684815 80.0220389589716 -0.648357502684815 80.0220389589716 -16.4175902460087 171.177085752763
2 -17.0602725944067 144.662272773201 -0.590480358727115 59.9953688186082 -0.590480358727116 59.9953688186082 -17.0833457323845 152.456442464175
2.05 -19.3223358244506 126.14461999717 -0.526839514805008 41.9341817298644 -0.526839514805006 41.9341817298644 -19.3463061203133 134.985723494075
2.1 -22.8522863728819 106.652795912533 -0.47886944348256 25.2651236750741 -0.478869443482563 25.2651236750741 -22.9251375593678 118.361808942865
2.15 -27.8072568860468 82.8739328869332 -0.450813368387666 9.68575543336846 -0.450813368387666 9.68575543336846 -28.1565031738502 101.636172421463
2.2 -34.1363076746802 42.3468564996321 -0.438156579391397 -5.01824480382708 -0.438156579391402 -5.01824480382703 -36.7023457408973 80.0954803139546
2.25 -36.4278575986649 -25.1518632298408 -0.434843925472914 -19.0275361246495 -0.434843925472915 -19.0275361246495 -48.3658149368544 -42.2096436498138
2.3 -34.2298946518801 -63.7659324206132 -0.436457893474847 -32.4996290448793 -0.436457893474847 -32.4996290448793 -38.9458691634624 -94.8080458081481
2.35 -33.1595560085762 -80.8170132463931 -0.440718937852368 -45.5694508611549 -0.44071893785237 -45.5694508611549 -36.9965016013993 -108.914987997591
2.4 -33.103910782052 -89.6870469229293 -0.446866222691302 -58.3508487907605 -0.446866222691301 -58.3508487907605 -37.5095464534359 -118.018481089101
2.45 -33.4566080676805 -95.3158316123869 -0.454875537294634 -70.9407952084113 -0.454875537294633 -70.9407952084113 -39.2534255384891 -125.017111534267
2.5 -33.8234613391218 -102.508286150285 -0.464952558602295 -83.4252227585955 -0.464952558602294 -83.4252227585955 -41.2521470213731 -135.195329902263
2.55 -34.0254437324159 -117.141306944087 -0.477427202954692 -95.8849127214265 -0.477427202954696 -95.8849127214265 -41.6022338522501 -159.699954636107
2.6 -33.5069275651542 -143.746708699481 -0.493001819760504 -108.400062234341 -0.493001819760505 -108.400062234341 -37.9407552455179 168.014155818764
2.65 -31.1456070608628 -177.510880440244 -0.513201036845399 -121.052544702017 -0.5132010368454 -121.052544702017 -32.5168589418044 145.86500726321
2.7 -27.3758579132841 153.579407277573 -0.540788475728803 -133.925376718516 -0.5407884757288 -133.925376718516 -27.5923943169395 130.284358156238
2.75 -23.5686222606122 131.578250488985 -0.579832773161898 -147.099668703735 -0.579832773161899 -147.099668703735 -23.4972530774373 116.779545835006
2.8 -20.2731251718698 113.454448077003 -0.635034777061476 -160.65070454848 -0.635034777061478 -160.65070454848 -20.1492422654821 103.709445173292
2.85 -17.5752982545007 97.0846417631685 -0.709945665791903 -174.647151513619 -0.7099456657919 -174.647151513619 -17.4545432783365 90.5172550800688
2.9 -15.4718632431929 81.4079856005152 -0.803967605650918 170.839164765788 -0.803967605650886 170.839164765788 -15.3640570325748 77.0142369590059
2.95 -13.9834098732647 65.8944785232931 -0.908733778602144 155.701455029905 -0.908733778602146 155.701455029905 -13.8858960820697 63.1520518621277
3 -13.2131413858812 50.25361939661 -1.00586715099084 139.72845087385 -1.00586715099084 139.72845087385 -13.117322885688 48.9684502407385
3.05 -13.4755764888484 34.4022412528835 -1.07112407318856 122.476334252175 -1.07112407318857 122.476334252175 -13.3595929935914 34.7649731548007
3.1 -15.8220970723668 19.5309008601643 -1.09845051103646 103.062326334625 -1.09845051103646 103.062326334625 -15.5800739033883 22.8035872340449
3.15 -25.7365252107118 37.5716043144388 -1.181230707185 79.9588299435205 -1.181230707185 79.9588299435205 -23.0558287039044 46.8793093881677
3.2 -13.696454742668 122.419953032971 -1.70336557116293 51.5150292385859 -1.70336557116293 51.5150292385859 -13.2992312228368 113.865905206816
3.25 -6.05342440687236 97.8316646141384 -3.39715952930893 19.0431572770921 -3.39715952930893 19.0431572770921 -5.9417610777768 93.2313124332044
3.3 -2.78921905734123 70.0049064913863 -6.52584363392953 -11.1788229913091 -6.52584363392953 -11.1788229913091 -2.72770230314574 66.8704068642586
3.35 -1.47083551106709 47.4999182865092 -10.4160540363348 -34.9058759534481 -10.4160540363348 -34.9058759534482 -1.42766234430334 45.1691163596174
3.4 -0.926063456979595 30.3666402122478 -14.4173780083303 -52.8809889455378 -14.4173780083303 -52.8809889455378 -0.892199459230882 28.5655719977317
3.45 -0.675068885459979 16.9437009839776 -18.2573671351484 -67.0518191708275 -18.2573671351484 -67.0518191708275 -0.646852107813291 15.5293139565645
3.5 -0.543053892607992 5.94870541940762 -21.8357457722467 -78.8793843866266 -21.8357457722467 -78.8793843866264 -0.518609325696883 4.83554169461439
3.55 -0.465233539436861 -3.41451579628557 -25.0703498431136 -89.379177649958 -25.0703498431135 -89.379177649958 -0.443344472493619 -4.28127543937526
3.6 -0.418190883301839 -11.6485413024468 -27.7905822524646 -99.6896502438511 -27.7905822524646 -99.6896502438511 -0.397514573717877 -12.302686591751
3.65 -0.423896242467651 -19.1289228399438 -29.4553226450113 -116.239075516282 -29.4553226450113 -116.239075516282 -0.397504287497041 -19.5784970127
3.7 -0.360196200575785 -24.9527884539973 -36.5984973990616 -121.681857293119 -36.5984973990616 -121.681857293119 -0.339949907040533 -25.400919081558
3.75 -0.311896097067 -31.352519509988 -36.4309380735136 -119.974087808804 -36.4309380735136 -119.974087808804 -0.297576521194204 -31.6239232269734
3.8 -0.291155840168401 -37.1322113623559 -37.0885659120047 -126.126061457319 -37.0885659120047 -126.126061457319 -0.278209851699007 -37.2746844830841
3.85 -0.274828177750664 -42.523133161899 -37.5514174892085 -132.074427318467 -37.5514174892085 -132.074427318467 -0.262823864314729 -42.5558522229184
3.9 -0.261062260945734 -47.6104103407447 -37.7368933096998 -137.525421019889 -37.7368933096998 -137.525421019889 -0.249835300269155 -47.5458151365475
3.95 -0.249221246358084 -52.4471701323666 -37.701165462101 -142.525835510609 -37.701165462101 -142.525835510609 -0.238664677677074 -52.2947967166795
4 -0.238925786959162 -57.0727540756346 -37.5171370431822 -147.167121833117 -37.5171370431822 -147.167121833116 -0.22895672425563 -56.8404107603359
4.05 -0.229906445507526 -61.5182137358249 -37.245490661009 -151.534486627937 -37.245490661009 -151.534486627937 -0.220456668999624 -61.2125221955811
4.1 -0.221958612527274 -65.8088754817869 -36.9294626192355 -155.694653752813 -36.9294626192355 -155.694653752813 -0.212970550876287 -65.4355880161554
4.15 -0.214921556190812 -69.9658464492934 -36.5971534997108 -159.69629364076 -36.5971534997108 -159.69629364076 -0.206346047682108 -69.5300628385401
4.2 -0.20866625171517 -74.0070124552211 -36.2654815730825 -163.574137241548 -36.2654815730825 -163.574137241548 -0.200461118529772 -73.5133437519841
4.25 -0.203087453032215 -77.9477473129076 -35.9437078638037 -167.353185304046 -35.9437078638037 -167.353185304046 -0.195216570225618 -77.400450719667
4.3 -0.198098191891636 -81.8014416147962 -35.6360420816775 -171.051969981704 -35.6360420816775 -171.051969981704 -0.1905309398406 -81.2045409329963
4.35 -0.193625819495335 -85.5799128566903 -35.3433978180703 -174.684834364455 -35.3433978180703 -174.684834364455 -0.186336906705133 -84.9373156943741
4.4 -0.189609110603049 -89.2937365487913 -35.0644974317507 -178.263476259917 -35.0644974317507 -178.263476259917 -0.18257883185181 -88.6093592076819
4.45 -0.185996169373557 -92.9525269812618 -34.7965096539917 178.201981490878 -34.7965096539917 178.201981490878 -0.179211264706478 -92.2304401023313
4.5 -0.182743032332186 -96.5651914100031 -34.5353470792255 174.702178459367 -34.5353470792255 174.702178459367 -0.176198480107595 -95.809804825666
