! 2-port S-parameter data
! S-port 1 net1
! S-port 2 net2
# GHz S DB R 50
!freq dBS11 angS11 dBS21 angS21 dBS12 angS12 dBS22 angS22
0.5 -0.0142680353370137 -30.6072216351078 -47.7147278943638 59.4088434300036 -47.7147278943638 59.4088434300036 -0.0140082777808434 -30.4946086542101
0.55 -0.0160210976123851 -33.8218730379667 -47.1444813920705 56.1354639985965 -47.1444813920705 56.1354639985965 -0.0157451886330244 -33.6976614605772
0.6 -0.017911309267403 -37.0847705691156 -46.7391929122522 52.6395785917371 -46.7391929122522 52.6395785917371 -0.0176076705778108 -36.9488762701769
0.65 -0.0199554296575925 -40.402410788927 -46.4644730855601 49.3015757739969 -46.4644730855601 49.3015757739969 -0.0196212459481488 -40.2546970049475
0.7 -0.0221756660447033 -43.7819926692437 -46.3086123827757 45.9329850816752 -46.3086123827756 45.9329850816752 -0.0218078718547345 -43.6222884977287
0.75 -0.0245971937552826 -47.2315437365191 -46.2891235610018 42.4938690458701 -46.2891235610018 42.4938690458701 -0.0241923142285143 -47.0596373326148
0.8 -0.0272493909924714 -50.7600839502801 -46.4281255264642 38.9760238586559 -46.4281255264642 38.9760238586559 -0.0268035215300326 -50.5757132729495
0.85 -0.0301670107864791 -54.3778233501783 -46.7586766060417 35.3732307198857 -46.7586766060417 35.3732307198857 -0.0296757618883514 -54.1806645534159
0.9 -0.0333915971389588 -58.0964080532652 -47.3329712616109 31.6795722602664 -47.3329712616109 31.6795722602664 -0.0328500204746881 -57.8860607649178
0.95 -0.0369733123255738 -61.9292279072201 -48.2375540126516 27.8913280743364 -48.2375540126516 27.8913280743364 -0.0363758106153969 -61.7051966393764
1 -0.0409733309405035 -65.8918075296591 -49.6278295503825 24.0128016344822 -49.6278295503825 24.0128016344822 -0.0403135495779688 -65.653478190101
1.05 -0.0454670104628996 -70.002309169272 -51.8230675022714 20.0768953480309 -51.8230675022714 20.0768953480309 -0.0447377076603455 -69.7489189777219
1.1 -0.0505481345815344 -74.2821888669252 -55.6638175490861 16.2528345903196 -55.6638175490861 16.2528345903196 -0.0497410261648963 -74.012787240398
1.15 -0.0563346578951993 -78.7570674772865 -65.312855858582 14.4406431260107 -65.312855858582 14.4406431260107 -0.0554402317938241 -78.4704647046973
1.2 -0.0629765874648701 -83.4579082194084 -62.4256155719733 -177.096950016821 -62.4256155719733 -177.096950016821 -0.0619838827911593 -83.1526078941142
1.25 -0.0706669962368481 -88.4226451962689 -53.0499622625063 179.83687164757 -53.0499622625063 179.83687164757 -0.0695633410125962 -88.0967523367044
1.3 -0.0796578441804323 -93.6984922106042 -48.3612599676675 175.006494114666 -48.3612599676675 175.006494114666 -0.0784285473294398 -93.3495882355828
1.35 -0.0902837718830795 -99.3453193969424 -45.3145132960479 169.619942818568 -45.3145132960479 169.619942818568 -0.0889117653967906 -98.9702868174702
1.4 -0.103000701249224 -105.440773878751 -43.3270906529921 163.806370287961 -43.3270906529921 163.806370287961 -0.101466131526499 -105.035546122627
1.45 -0.118456223913022 -112.088396858851 -42.40705982235 157.647877856208 -42.40705982235 157.647877856208 -0.116735994916217 -111.647590686517
1.5 -0.137639527309105 -119.431198609384 -43.2049149586216 151.562238293884 -43.2049149586216 151.562238293884 -0.135706782646204 -118.947554361287
1.55 -0.16225991009592 -127.675869380853 -49.5186010425789 150.691852152002 -49.5186010425789 150.691852152002 -0.160083366171755 -127.139363363952
1.6 -0.19586551282053 -137.13937810374 -43.9925686294895 -59.0712261065703 -43.9925686294895 -59.0712261065703 -0.1934081826741 -136.535734211682
1.65 -0.247638936655441 -148.346741961219 -31.1653292737863 -64.8401400278449 -31.1653292737862 -64.8401400278449 -0.244854127080294 -147.654747038678
1.7 -0.347055385315543 -162.254732082077 -22.6729671083892 -77.9599000956126 -22.6729671083892 -77.9599000956126 -0.343870140460287 -161.440885244071
1.75 -0.608294630174727 179.214275468828 -15.3108933212354 -96.6463793133051 -15.3108933212354 -96.6463793133051 -0.60452959302012 -179.79192726314
1.8 -1.53772468452714 152.207698628001 -8.52220130618229 -124.559237736836 -8.52220130618229 -124.559237736836 -1.53262007443575 153.499367417998
1.85 -5.18325291437683 113.411383386566 -3.24815613919099 -165.911329903365 -3.24815613919099 -165.911329903365 -5.17132982402236 115.324883888122
1.9 -16.8219868672282 82.2851995282889 -1.12690710147106 149.494161068187 -1.12690710147106 149.494161068187 -16.6702643228178 86.722795017236
1.95 -19.7182119278075 -169.760326592988 -0.831703602271037 115.685315350227 -0.831703602271041 115.685315350227 -19.4603005789771 -171.626776072815
2 -15.2908940696545 175.9801408211 -0.805788941115598 90.2582013238783 -0.805788941115596 90.2582013238783 -15.2097490312184 176.199046389254
2.05 -15.5293708169351 156.711907743211 -0.739461302875057 68.985810988867 -0.739461302875056 68.985810988867 -15.4631208401538 157.946135775009
2.1 -17.6338847588269 137.706866164483 -0.653589796300859 49.9644265484257 -0.653589796300859 49.9644265484257 -17.5638159357106 140.152239184533
2.15 -21.2517567056231 118.267779381247 -0.584681118789308 32.4553969005141 -0.584681118789309 32.4553969005141 -21.1775457544092 122.877608126458
2.2 -26.8262457879483 94.9803468200644 -0.543958291729676 16.1322045277858 -0.543958291729679 16.1322045277858 -26.8371920641889 104.92752878226
2.25 -35.4199232085972 46.4789408927119 -0.526523381785944 0.784118638807507 -0.526523381785928 0.784118638807451 -37.5889163415369 75.7515226897962
2.3 -35.0705581723855 -46.3756610238752 -0.523114533981506 -13.7737475508782 -0.523114533981507 -13.7737475508782 -39.2214938049888 -69.5899681193841
2.35 -31.358493761011 -77.259743503085 -0.526337390471295 -27.7134134551687 -0.526337390471295 -27.7134134551687 -33.1172062020326 -94.4338615013745
2.4 -30.4377075096005 -90.3295920486298 -0.532279343622815 -41.1877914128224 -0.532279343622818 -41.1877914128224 -31.9998976701786 -105.4122055042
2.45 -31.0961783914154 -95.204408324652 -0.539816429058285 -54.3258985696828 -0.539816429058282 -54.3258985696828 -33.0760353376434 -109.83940674216
2.5 -32.5126382469753 -91.0939450697051 -0.54926836402811 -67.2338137219201 -0.54926836402811 -67.2338137219201 -35.5288764769895 -103.112302693092
2.55 -33.4086013524619 -78.0955893414475 -0.561248961224795 -80.0001629672469 -0.561248961224792 -80.0001629672469 -37.1700050672222 -78.7707051921652
2.6 -32.9358914594283 -65.8484343897369 -0.576040733157363 -92.7037741061361 -0.576040733157368 -92.7037741061361 -35.6513215903899 -57.191909654031
2.65 -32.2141184265912 -62.6460040226085 -0.593540377568825 -105.421319849665 -0.593540377568826 -105.421319849665 -33.9468952180786 -53.3297907693628
2.7 -32.5474536228564 -67.7493616461596 -0.61366295251861 -118.233269530998 -0.613662952518611 -118.233269530998 -33.8876467728962 -60.0061321295702
2.75 -35.1256255730682 -81.3098786547201 -0.636990071030609 -131.227074421125 -0.636990071030611 -131.227074421125 -36.5622630424547 -76.0964217085431
2.8 -42.8927451260132 -132.626781988011 -0.665367407722279 -144.497252559022 -0.665367407722283 -144.497252559022 -44.2974502964603 -144.133216189449
2.85 -35.0091411621328 119.909989401505 -0.702084326653304 -158.143121629306 -0.702084326653304 -158.143121629306 -34.1544273305622 122.951647036183
2.9 -27.4076573556531 95.2586809683597 -0.751229832295677 -172.266796066259 -0.751229832295681 -172.266796066259 -27.0387621706014 100.282956601926
2.95 -22.987619847997 78.7261771526306 -0.815935790204679 173.022754463557 -0.815935790204684 173.022754463557 -22.7656204062902 84.1039839083208
3 -20.242777635687 63.4695553914266 -0.895757569831456 157.589161657214 -0.895757569831454 157.589161657214 -20.0701531970312 69.2486004838541
3.05 -18.875979781035 48.4225177033462 -0.98485669462437 141.216019398252 -0.98485669462437 141.216019398252 -18.6969777963821 55.0452365798004
3.1 -19.2545971629158 33.9583484174918 -1.07584664930579 123.503565348602 -1.07584664930579 123.503565348602 -18.9672468818566 42.6148179613684
3.15 -23.5232606336489 26.6064360692426 -1.18165023404098 103.708447870597 -1.18165023404098 103.708447870597 -22.389540702109 41.6485248914475
3.2 -24.5977308559306 128.275851579943 -1.40344511071045 80.6256297808911 -1.40344511071045 80.6256297808911 -22.3645112412316 113.852145734951
3.25 -12.0676029181066 125.339999270905 -2.06949480724749 53.0884188579463 -2.0694948072475 53.0884188579463 -11.7971338893344 119.826341368355
3.3 -6.05389924345224 98.9662453097733 -3.75557394642455 22.2142137938902 -3.75557394642455 22.2142137938902 -5.95681008915795 96.3900281091319
3.35 -3.05230507058754 71.5701456410753 -6.71348360250716 -7.14441440812673 -6.71348360250717 -7.14441440812671 -3.00043594313019 70.2145922925762
3.4 -1.70288227884364 48.7847145054203 -10.4708920386751 -31.1092931291487 -10.4708920386751 -31.1092931291487 -1.66929509572624 48.0708796007429
3.45 -1.10205360953978 31.0461331537173 -14.4667253520169 -49.713377036301 -14.4667253520169 -49.7133770363011 -1.07777664327286 30.7163995710397
3.5 -0.810729181551443 17.0462109960432 -18.4256217425446 -64.4605125199008 -18.4256217425446 -64.4605125199008 -0.791911451404926 16.9657264032978
3.55 -0.65118438487795 5.59841792208491 -22.2501828564137 -76.6515961628359 -22.2501828564137 -76.6515961628358 -0.635873046839668 5.6887257640806
3.6 -0.552747619527461 -4.08613646720778 -25.8967601224716 -87.1609550466529 -25.8967601224716 -87.1609550466529 -0.539819508752279 -3.87427275860883
3.65 -0.485708185414824 -12.5073772923937 -29.3176224377675 -96.5524490356279 -29.3176224377675 -96.5524490356279 -0.474435913934212 -12.2068366646943
3.7 -0.436508344257416 -19.9883243294251 -32.4379127378581 -105.159808528686 -32.4379127378581 -105.159808528686 -0.426336937296396 -19.6227695194134
3.75 -0.398250860952642 -26.7450736100988 -35.1490074757467 -113.014637909666 -35.1490074757467 -113.014637909666 -0.388671320752968 -26.3359374933181
3.8 -0.365514294915958 -32.9384857554218 -37.0897368409943 -120.045227774654 -37.0897368409943 -120.045227774654 -0.362105306326844 -32.5170069229532
3.85 -0.342763416969658 -38.6724337394504 -38.7825222598705 -128.834182611065 -38.7825222598705 -128.834182611065 -0.33911962221197 -38.1722240467251
3.9 -0.321969793724536 -44.0169961720667 -39.8234606017119 -135.088204399304 -39.8234606017119 -135.088204399304 -0.317434274499322 -43.492419104527
3.95 -0.30408162104021 -49.047058131966 -40.3098010498712 -140.622456718301 -40.3098010498712 -140.622456718301 -0.299542170694231 -48.5040847283525
4 -0.288649501504421 -53.8108345702804 -40.3991959031827 -145.528482733798 -40.3991959031827 -145.528482733798 -0.284286160000885 -53.2533148016608
4.05 -0.275233295971284 -58.3476111416174 -40.2280582125881 -149.949837534423 -40.2280582125881 -149.949837534423 -0.271085535701404 -57.7786984909417
4.1 -0.263488019028953 -62.6895435393176 -39.9039969457817 -154.029797511105 -39.9039969457817 -154.029797511105 -0.259555510429251 -62.1118668768593
4.15 -0.253144001894874 -66.8632679508402 -39.5021356169152 -157.877563704214 -39.5021356169152 -157.877563704214 -0.249413562847155 -66.2790395115567
4.2 -0.243987518901233 -70.8911250510448 -39.0703120597248 -161.566006761878 -39.0703120597248 -161.566006761878 -0.240442116601509 -70.3022280422441
4.25 -0.235846692146556 -74.7920767102539 -38.6367492639324 -165.140878364935 -38.6367492639324 -165.140878364935 -0.232468817604747 -74.2001364283551
4.3 -0.228581442460534 -78.5824003088523 -38.2167363250645 -168.630539890839 -38.2167363250645 -168.630539890839 -0.225354429949506 -77.9888418696823
4.35 -0.222076224136378 -82.2762236235545 -37.8174452918094 -172.053028577087 -37.8174452918094 -172.053028577087 -0.218984753744249 -81.6823195905865
4.4 -0.216234671974748 -85.8859452694154 -37.4410923805294 -175.420506295231 -37.4410923805294 -175.420506295231 -0.213264943553878 -85.2928561129698
4.45 -0.210975592254588 -89.4225730815972 -37.086898226182 -178.741888010663 -37.086898226182 -178.741888010663 -0.20811538599443 -88.8313832282088
4.5 -0.206229932373576 -92.8960048211241 -36.7522461571726 177.975632761903 -36.7522461571726 177.975632761903 -0.203468667239845 -92.3077569339553
