! 2-port S-parameter data
! S-port 1 net1
! S-port 2 net2
# GHz S DB R 50
!freq dBS11 angS11 dBS21 angS21 dBS12 angS12 dBS22 angS22
0.5 -0.0145438848659528 -30.2563648770865 -48.0590507665017 59.5677424409217 -48.0590507665017 59.5677424409217 -0.0142065198289682 -30.2682757943393
0.55 -0.0162252275485822 -33.4315427436392 -47.5162874249812 56.3987667259927 -47.5162874249812 56.3987667259927 -0.0159572329152178 -33.4441029892482
0.6 -0.0181119220964206 -36.6542230366533 -47.0959797084088 53.1911738498372 -47.0959797084088 53.1911738498373 -0.017832166604559 -36.6666750546922
0.65 -0.0201479846798329 -39.9302212674832 -46.7949277748667 49.939413550318 -46.7949277748667 49.939413550318 -0.0198571463064407 -39.9421707734289
0.7 -0.0223547683735671 -43.2665081786138 -46.6144884302996 46.6206253077197 -46.6144884302996 46.6206253077197 -0.0220535288826891 -43.277494766875
0.75 -0.0247570870291474 -46.6708462262676 -46.5668081329759 43.1757267930698 -46.5668081329759 43.1757267930698 -0.0244461659208705 -46.6803317574945
0.8 -0.0273834570579895 -50.1519413638597 -46.6833401502655 39.592449240826 -46.6833401502655 39.592449240826 -0.0270637324609535 -50.1592942747069
0.85 -0.0302669379580681 -53.7196363105376 -46.9969031968457 35.9466672380755 -46.9969031968457 35.9466672380755 -0.0299393536473328 -53.7241122341023
0.9 -0.0334474485710037 -57.3851423959155 -47.5484515299 32.252274593114 -47.5484515299 32.252274593114 -0.0331130173706753 -57.3858608019254
0.95 -0.0369732847552659 -61.1613255834236 -48.4155985771174 28.485679259838 -48.4155985771174 28.485679259838 -0.0366332087973706 -61.1572384103203
1 -0.040903078243377 -65.0630736623747 -49.7417044835394 24.6348361090196 -49.7417044835394 24.6348361090196 -0.0405588138203851 -65.052924932497
1.05 -0.0453087347076371 -69.1077674941552 -51.8161145838983 20.715520708734 -51.8161145838984 20.715520708734 -0.0449620626995155 -69.0900405057201
1.1 -0.0502793841956725 -73.3158933062011 -55.3696681355548 16.8409825749728 -55.3696681355548 16.8409825749728 -0.0499325088674149 -73.2887398011353
1.15 -0.0559266908177251 -77.711850218936 -63.573365629747 14.0860338290851 -63.573365629747 14.0860338290851 -0.0555823711993086 -77.6729961517004
1.2 -0.0623920994373656 -82.3250374740581 -64.9711711300286 -176.430364785864 -64.9711711300286 -176.430364785864 -0.062053819481712 -82.2716536227761
1.25 -0.0698569077080249 -87.1913470722837 -54.1549843486295 -179.023221027353 -54.1549843486295 -179.023221027353 -0.0695290912495226 -87.11986933949
1.3 -0.0785566213634336 -92.3552630307067 -49.1519739370087 176.243673551926 -49.1519739370087 176.243673551926 -0.0782448917819715 -92.2611380288244
1.35 -0.0888022510528602 -97.872899703004 -45.9313851806776 170.960262941829 -45.9313851806776 170.960262941829 -0.0885137179799919 -97.7502161508875
1.4 -0.10101403794079 -103.816549031665 -43.7806882464634 165.258798287156 -43.7806882464634 165.258798287156 -0.100757540309249 -103.657490886265
1.45 -0.115780597967094 -110.281770362514 -42.6224624190712 159.194760727735 -42.6224624190712 159.194760727735 -0.115566695306419 -110.075779834641
1.5 -0.133978343683434 -117.398997586347 -42.895288180044 153.020605695244 -42.895288180044 153.020605695244 -0.133818483969102 -117.131450212553
1.55 -0.157055369332523 -125.353697103063 -46.8110454341727 148.994069952235 -46.8110454341727 148.994069952235 -0.15695866580191 -125.003713162961
1.6 -0.187822157585999 -134.423908739475 -50.5225605570953 -64.0685683908256 -50.5225605570953 -64.0685683908256 -0.187785321006867 -133.960546943378
1.65 -0.232984152853197 -145.055984461915 -34.1048693513093 -62.1207461275478 -34.1048693513093 -62.1207461275478 -0.232961127198385 -144.431174724853
1.7 -0.312347406090063 -158.030731449578 -25.0959555268053 -73.7625462953037 -25.0959555268053 -73.7625462953037 -0.312153777838698 -157.164992425987
1.75 -0.496659094165142 -174.850021026109 -17.630924963063 -90.4038086060625 -17.630924963063 -90.4038086060625 -0.495638094964594 -173.60005902299
1.8 -1.07925734097122 161.456938958549 -10.7738704976582 -114.472271332077 -10.7738704976582 -114.472271332077 -1.07487871936736 163.385073635592
1.85 -3.28331050703553 126.460892986712 -4.88588977052206 -150.570490286795 -4.88588977052206 -150.570490286795 -3.26305382059327 129.815256365082
1.9 -10.4878586386636 85.2534706797901 -1.63659422397002 164.686520013712 -1.63659422397002 164.686520013712 -10.3352944315931 92.9877360305974
1.95 -32.2130667780874 141.962004076916 -0.875549328670207 127.03479810535 -0.875549328670212 127.03479810535 -25.0275629453014 137.99501401986
2 -18.0878660969504 -173.921755798031 -0.791214894111475 99.108098579556 -0.791214894111475 99.108098579556 -17.6430490465946 176.473533949401
2.05 -16.959937896201 166.680882583431 -0.736949430548729 76.5129425107484 -0.736949430548734 76.5129425107484 -16.7387897257455 160.738224437118
2.1 -18.7981559172471 147.589034599214 -0.661478293912233 56.7076199828719 -0.661478293912237 56.7076199828718 -18.5978920833029 142.87055080468
2.15 -22.8461808078702 128.646355595953 -0.596838355916867 38.6577902132906 -0.596838355916867 38.6577902132906 -22.5837920157903 124.560164645011
2.2 -30.7015664841853 105.175059576039 -0.558612682620842 21.9268012072521 -0.558612682620846 21.9268012072521 -30.1527690107619 102.332017564235
2.25 -39.9355064175771 -35.3535957123113 -0.544210491384375 6.26534724906506 -0.544210491384365 6.26534724906514 -41.6383916537298 -33.7627916346511
2.3 -29.3863811133122 -78.3269013987464 -0.544337804108406 -8.52887116771934 -0.544337804108404 -8.52887116771934 -29.9549041960712 -83.8686085108462
2.35 -26.2300568857238 -93.980330417719 -0.550647833022968 -22.641699202759 -0.550647833022968 -22.641699202759 -26.6644320221011 -100.462925084146
2.4 -25.264152383587 -105.867967483747 -0.558382155204807 -36.2399186330754 -0.558382155204808 -36.2399186330754 -25.7250955831508 -113.672158187568
2.45 -25.4824313787829 -115.407695096038 -0.566099033851034 -49.4655728958834 -0.566099033851035 -49.4655728958834 -26.0827403219017 -125.236847848087
2.5 -26.5096967433158 -122.462214473806 -0.574358041324653 -62.4353130225315 -0.574358041324651 -62.4353130225315 -27.4253765038167 -135.37912295758
2.55 -28.0820119174955 -126.438481958075 -0.584406191960181 -75.2447318466641 -0.584406191960182 -75.2447318466641 -29.6633299229467 -143.884045686059
2.6 -29.8308633360714 -127.204960058024 -0.597314143845227 -87.9755932597558 -0.59731414384523 -87.9755932597558 -32.7546769827003 -150.459614044142
2.65 -31.2768619654124 -127.242702019755 -0.613680981249861 -100.703765205939 -0.613680981249863 -100.703765205939 -36.4879912048325 -156.322828926519
2.7 -32.2140642618223 -132.890957988802 -0.633844047534228 -113.506058238799 -0.633844047534226 -113.506058238799 -39.9565948215305 -170.488962124103
2.75 -32.6419330931825 -151.244507500883 -0.658413948569976 -126.464707803761 -0.658413948569977 -126.464707803761 -39.7110466383997 153.46044931673
2.8 -31.6581851343805 176.353753722063 -0.688866454400621 -139.6689256152 -0.688866454400617 -139.6689256152 -34.5137804608417 122.852690071371
2.85 -28.5871905288447 142.703078906616 -0.727847953313216 -153.213931805598 -0.727847953313219 -153.213931805598 -29.1801330486863 105.281004671522
2.9 -24.9320362585312 117.085105379381 -0.778803957209213 -167.199502611654 -0.778803957209213 -167.199502611654 -24.927890428984 91.3664100678091
2.95 -21.8085054868192 97.1744534688978 -0.844607019257449 178.267180830061 -0.844607019257436 178.267180830061 -21.6968773044709 77.9400316944954
3 -19.5016962045747 80.049444639852 -0.92525410831619 163.055416286974 -0.92525410831619 163.055416286975 -19.4029134712349 64.167645334029
3.05 -18.1464587961391 64.4760898705737 -1.01581448605135 146.96741911718 -1.01581448605135 146.96741911718 -18.1050582511113 49.8578546957093
3.1 -18.0722748986409 50.8040472783078 -1.10841370738152 129.648700730718 -1.10841370738152 129.648700730718 -18.1669375166881 35.2399232255478
3.15 -20.3008511167898 44.4305467820158 -1.20824210198271 110.438653515322 -1.20824210198271 110.438653515322 -21.0256845020248 22.8459157128922
3.2 -23.7946297259146 91.6595362786879 -1.38786123653281 88.2155227734684 -1.38786123653281 88.2155227734684 -31.0758165119674 95.4549723240411
3.25 -13.749101505931 122.326011379533 -1.91457602280047 61.6548805360433 -1.91457602280047 61.6548805360433 -14.4125955557338 131.785560499447
3.3 -7.02774003254365 102.9432441326 -3.34354797303911 31.0761781909502 -3.34354797303911 31.0761781909502 -7.19347123729798 106.794952458084
3.35 -3.52593241209944 76.7996817888843 -6.08057905316309 0.75845861094268 -6.0805790531631 0.758458610942686 -3.58453819064889 78.6383957244995
3.4 -1.9223411402589 53.6118748055424 -9.77974476055497 -24.6090849274728 -9.77974476055497 -24.6090849274728 -1.94348170796398 54.514380935143
3.45 -1.21621272979184 35.281173322835 -13.834608389752 -44.3249168067103 -13.834608389752 -44.3249168067103 -1.22101081462467 35.6816158605842
3.5 -0.882109463825557 20.8217108582656 -17.9096865372194 -59.8130502481168 -17.9096865372194 -59.8130502481167 -0.878900719834608 20.9287763765631
3.55 -0.703451952590802 9.04078022968172 -21.8844267863272 -72.4815181179986 -21.8844267863272 -72.4815181179986 -0.696079549225824 8.96674907387152
3.6 -0.595069050487223 -0.893967836880783 -25.7092153799742 -83.299376163412 -25.7092153799742 -83.299376163412 -0.585494830767776 -1.08358421957642
3.65 -0.521897139364964 -9.5142829175275 -29.3271832821942 -92.8987144935089 -29.3271832821942 -92.898714493509 -0.511195531557708 -9.77849594402826
3.7 -0.468322961958148 -17.1648209182638 -32.6262584801672 -101.683862424504 -32.6262584801672 -101.683862424504 -0.457098629515346 -17.4755790691719
3.75 -0.426932359695221 -24.0833641783284 -35.375068348634 -109.91451516937 -35.375068348634 -109.91451516937 -0.415399119798902 -24.4169861169037
3.8 -0.397554386662105 -30.4750494061211 -36.9559689226716 -118.914369085803 -36.9559689226716 -118.914369085803 -0.383798261280391 -30.7943005396474
3.85 -0.423784901324508 -36.1245645976584 -39.2473817117815 -150.749535572562 -39.2473817117815 -150.749535572562 -0.38842540729534 -36.5512688814911
3.9 -0.360980611517639 -41.4589178425419 -42.4541913813781 -142.760113945246 -42.4541913813781 -142.760113945246 -0.343654299950717 -41.925757423434
3.95 -0.334302272009031 -46.5963757804257 -42.6211127975634 -143.974748646096 -42.6211127975634 -143.974748646096 -0.320032417392786 -47.0541862508776
4 -0.315129333334389 -51.4429432672939 -42.3954136554849 -147.278779389335 -42.3954136554849 -147.278779389335 -0.301980208379614 -51.8971277527705
4.05 -0.299369811169604 -56.0485557390933 -41.9349425927785 -150.790071618067 -41.9349425927785 -150.790071618067 -0.286869293995737 -56.5002246799158
4.1 -0.285889029607122 -60.4500201500751 -41.3521815721466 -154.261377787927 -41.3521815721466 -154.261377787927 -0.273856858039546 -60.899048302405
4.15 -0.274148386893743 -64.6762885854395 -40.7262715622618 -157.681178644354 -40.7262715622618 -157.681178644354 -0.262494903619778 -65.1222218546797
4.2 -0.263814602821455 -68.7510814201281 -40.104519265217 -161.064191430034 -40.104519265217 -161.064191430034 -0.252486378737652 -69.1934087381709
4.25 -0.254652330192695 -72.6942924311186 -39.511666455395 -164.419573989657 -39.511666455395 -164.419573989657 -0.24361320555518 -73.1325289070293
4.3 -0.246483263969919 -76.5228832040657 -38.9584794142994 -167.750499054808 -38.9584794142994 -167.750499054808 -0.235706572138271 -76.956591036089
4.35 -0.239166607676219 -80.2515127512473 -38.4476808594554 -171.057355888552 -38.4476808594554 -171.057355888552 -0.228631612562565 -80.6803006471528
4.4 -0.232588134181189 -83.893008382761 -37.9775873311308 -174.339925453513 -37.9775873311308 -174.339925453513 -0.222278271366366 -84.3165241207283
4.45 -0.226653355497848 -87.4587335067194 -37.5441981857256 -177.598423266783 -37.5441981857256 -177.598423266783 -0.216555333502755 -87.8766549548382
4.5 -0.221282947304574 -90.9588867520549 -37.1423303514263 179.166104060996 -37.1423303514263 179.166104060996 -0.21138630197646 -91.3709132340854
