! 2-port S-parameter data
! S-port 1 net1
! S-port 2 net2
# GHz S DB R 50
!freq dBS11 angS11 dBS21 angS21 dBS12 angS12 dBS22 angS22
0.5 -0.0141199794639082 -30.6124474167786 -47.5721557851716 59.314608655659 -47.5721557851716 59.314608655659 -0.0137160721075388 -30.4293045787856
0.55 -0.0158348677823125 -33.8355444874996 -47.038347680882 56.0911187120117 -47.038347680882 56.0911187120117 -0.0153935720855477 -33.6323185866771
0.6 -0.0176709723953473 -37.1094775451943 -46.630928495252 52.8175365535256 -46.630928495252 52.8175365535256 -0.0171966884189897 -36.8860117481657
0.65 -0.0196534960123617 -40.4411277975779 -46.3493433941704 49.4878160285948 -46.3493433941704 49.4878160285948 -0.0191443387359203 -40.1968543630871
0.7 -0.0218037492845435 -43.8381482901916 -46.1992117682249 46.0953525551172 -46.1992117682249 46.0953525551172 -0.0212573334820885 -43.5724050377207
0.75 -0.0241464235431659 -47.3090933594597 -46.1932140879586 42.633118843342 -46.1932140879586 42.633118843342 -0.02355981620789 -47.0211073214844
0.8 -0.0267105002891744 -50.8635970156175 -46.3532482704845 39.0938253409794 -46.3532482704845 39.0938253409794 -0.0260801632315643 -50.5524643052412
0.85 -0.0295303955618979 -54.5125928317305 -46.7146808645797 35.4703525507762 -46.7146808645797 35.4703525507763 -0.0288521164433282 -54.1772547134929
0.9 -0.032647426747882 -58.2685872307089 -47.3346837131305 31.7568611358029 -47.3346837131305 31.7568611358029 -0.0319162250783291 -57.9078000078149
0.95 -0.0361117200572933 -62.1460039681866 -48.3097259624416 27.9517617058737 -48.3097259624416 27.9517617058737 -0.035321723556451 -61.7583003984095
1 -0.0399847206514002 -66.1616233901854 -49.8170964285588 24.0666737507794 -49.8170964285588 24.0666737507794 -0.0391290373840695 -65.7452655388963
1.05 -0.0443425303195606 -70.335149799317 -52.2351779030026 20.1603455801437 -52.2351779030026 20.1603455801437 -0.0434130432053078 -69.8880671768839
1.1 -0.0492803913206497 -74.6899570786712 -56.6400349925588 16.5395529271205 -56.6400349925588 16.5395529271205 -0.0482675627314305 -74.209668670945
1.15 -0.0549187729020255 -79.254082985628 -70.3171819238066 19.0848748700543 -70.3171819238066 19.0848748700543 -0.0538113470322607 -78.737592972836
1.2 -0.06141174155602 -84.0615836167267 -59.443454880345 -177.209515051196 -59.443454880345 -177.209515051196 -0.0601964078866451 -83.5052456589604
1.25 -0.0689586821736568 -89.1544194943828 -51.6863929355792 179.236087201655 -51.6863929355792 179.236087201655 -0.0676196232378482 -88.5537515265746
1.3 -0.0778212046002521 -94.5851527917649 -47.4298795322285 174.27354686623 -47.4298795322285 174.27354686623 -0.0763395306527831 -93.9345840876561
1.35 -0.0883488193739453 -100.420929727718 -44.6290374353703 168.738465162829 -44.6290374353703 168.738465162829 -0.0867018012321847 -99.7134447452239
1.4 -0.101021539415121 -106.749588726028 -42.871372158533 162.746764018222 -42.871372158533 162.746764018222 -0.0991815532314064 -105.976214025104
1.45 -0.116530889566766 -113.689473119286 -42.2915678343408 156.405740317089 -42.2915678343408 156.405740317089 -0.114463854984331 -112.838514750481
1.5 -0.135963179771558 -121.406104019279 -43.9091768743722 150.387791382784 -43.9091768743722 150.387791382784 -0.133625996398719 -120.461969948885
1.55 -0.161294508085238 -130.142482795908 -56.444732933335 164.071995871318 -56.444732933335 164.071995871318 -0.158630327447986 -129.083779863204
1.6 -0.196949375863945 -140.278678563522 -39.0651218885255 -58.1614396401423 -39.0651218885255 -58.1614396401423 -0.193877277816563 -139.074946243593
1.65 -0.255391672860827 -152.459616805566 -28.265962199589 -67.7030908195462 -28.265962199589 -67.7030908195462 -0.251780058588402 -151.065270501041
1.7 -0.379791738400525 -167.891281728731 -20.2178834760328 -82.6653605935915 -20.2178834760328 -82.6653605935915 -0.375375962897346 -166.233120976677
1.75 -0.74697344168097 170.979617126129 -13.0290481441761 -103.988891642698 -13.0290481441761 -103.988891642698 -0.741041001363225 173.032402256567
1.8 -2.13896805856343 139.718927551212 -6.55731640274673 -136.099781407507 -6.55731640274673 -136.099781407507 -2.12873283697839 142.445868482163
1.85 -7.20709815801238 98.0737605040907 -2.22092715198015 179.717205934343 -2.22092715198015 179.717205934343 -7.17322778641126 102.321827539808
1.9 -22.1553489638922 75.3436170505811 -0.883185489096099 138.141951455403 -0.883185489096102 138.141951455403 -21.4137954058022 87.3482019713032
1.95 -19.8990108844139 -172.456933836457 -0.7237855660682 107.412679641345 -0.7237855660682 107.412679641345 -19.565773002754 -175.730318880715
2 -16.9984495696463 169.822954625189 -0.684415951276034 83.4140208484317 -0.684415951276034 83.4140208484317 -16.8739417956819 170.108196703911
2.05 -18.0901130178755 150.071148498271 -0.618067762482633 62.8332068024474 -0.618067762482635 62.8332068024474 -17.9868315794073 152.358172667705
2.1 -21.3003313565232 130.114994740622 -0.552050816558396 44.273055092394 -0.552050816558395 44.273055092394 -21.1927113570629 135.175782478209
2.15 -27.0094167838713 106.699928700011 -0.508193787945478 27.1623930711352 -0.508193787945478 27.1623930711352 -26.9538247666086 118.518309409743
2.2 -37.5029817172672 47.8688970264246 -0.487912375254198 11.2042297370983 -0.487912375254198 11.2042297370982 -41.1327096739328 96.6365003749055
2.25 -33.0066268862513 -56.8431057553218 -0.483280439042374 -3.82283999482596 -0.483280439042363 -3.82283999482606 -35.1153999817152 -83.6769828934334
2.3 -28.7388779764384 -82.0945972544486 -0.48600891035223 -18.1155899299822 -0.486008910352231 -18.1155899299822 -29.6541869894618 -98.3428782530227
2.35 -27.4958474654179 -96.2628279298369 -0.491020981979127 -31.8491160424899 -0.491020981979127 -31.8491160424899 -28.272455415827 -110.120765061639
2.4 -27.8278316146341 -105.914977383145 -0.496567952389225 -45.1719844711302 -0.496567952389227 -45.1719844711302 -28.7341318983276 -119.891783473345
2.45 -29.2692923520902 -110.964644859861 -0.502981594680504 -58.2054719210467 -0.502981594680507 -58.2054719210467 -30.6189893904992 -126.606698501749
2.5 -31.455383904168 -109.073826141002 -0.511301981499954 -71.0479677925472 -0.511301981499954 -71.0479677925472 -33.9326836398746 -126.682916330452
2.55 -33.4649706143269 -98.0476487302418 -0.522335837616133 -83.7825919208672 -0.522335837616133 -83.7825919208672 -38.1290513789756 -109.986254583007
2.6 -34.1024597081105 -84.8472561315379 -0.536312971111766 -96.4857295489044 -0.536312971111765 -96.4857295489044 -39.337008274096 -76.9642256673093
2.65 -34.1731420989908 -81.7160440740904 -0.553098253662908 -109.234528070076 -0.55309825366291 -109.234528070076 -38.3689873863544 -64.1541559058575
2.7 -35.4520618762789 -92.9739438255345 -0.572789496533164 -122.111929125982 -0.572789496533162 -122.111929125982 -40.1334666176178 -71.5429810667209
2.75 -38.6728500515464 -133.670691770904 -0.596440886403315 -135.208444470559 -0.596440886403318 -135.208444470559 -49.0040994828266 -141.979300177386
2.8 -35.2396133962399 149.935117861817 -0.626571745270089 -148.620723609878 -0.62657174527009 -148.620723609878 -35.8924223257152 123.329809824412
2.85 -28.3685442056782 114.995289931904 -0.667046767543958 -162.448312825399 -0.667046767543961 -162.448312825399 -28.2121191584312 104.107792098889
2.9 -23.6324952349937 95.0874062409302 -0.721904066864635 -176.792423504931 -0.721904066864637 -176.792423504931 -23.4813103289474 89.2484700650554
2.95 -20.4091934160676 78.6096842739952 -0.792942081292901 168.235503315957 -0.792942081292897 168.235503315957 -20.2955992160347 74.8994797286145
3 -18.3729418904072 63.1143607432446 -0.876695210145832 152.48231068936 -0.876695210145835 152.48231068936 -18.2874289723919 60.4335664605322
3.05 -17.5768777814563 48.1446797688397 -0.963394217532369 135.68017878895 -0.963394217532368 135.68017878895 -17.5125441673352 45.9206974390069
3.1 -18.6594973154455 35.0373153469453 -1.04499372651801 117.312034499256 -1.04499372651801 117.312034499256 -18.6235916751843 32.7359395549979
3.15 -24.3940900337945 40.8520941227618 -1.15041260833178 96.4220359279811 -1.15041260833178 96.4220359279811 -24.6200240760628 37.022372812376
3.2 -18.8872487768356 127.640994985351 -1.4465150902744 71.5812265882726 -1.4465150902744 71.5812265882726 -19.0836104188899 129.152827383933
3.25 -9.31468759300714 114.852379016983 -2.39951494247227 41.9810745210504 -2.39951494247227 41.9810745210504 -9.34136232436417 115.431352195183
3.3 -4.50434100437328 87.7187221992904 -4.60780041311567 10.4160732383307 -4.60780041311567 10.4160732383307 -4.50707921417189 88.0385793962123
3.35 -2.26652247287171 61.9200468681801 -8.01955701760831 -17.466773986751 -8.01955701760831 -17.466773986751 -2.26246408015965 62.1485763337914
3.4 -1.30812440762512 41.362588571515 -11.9863312905992 -39.3049535767806 -11.9863312905992 -39.3049535767806 -1.30170994403505 41.554771077154
3.45 -0.882308507414431 25.4243853882259 -16.0318699263968 -56.1918654941058 -16.0318699263968 -56.1918654941058 -0.875109156531819 25.6019633754424
3.5 -0.670891497753124 12.7005155336898 -19.968387826913 -69.742921517529 -19.968387826913 -69.742921517529 -0.663554129176842 12.8728764721663
3.55 -0.551390022162314 2.1502278159677 -23.730806432091 -81.1262223787189 -23.730806432091 -81.1262223787188 -0.544203150924786 2.32149509091557
3.6 -0.475412959538444 -6.88610277667683 -27.2764753908628 -91.0965638101514 -27.2764753908628 -91.0965638101514 -0.468513140435874 -6.71424819334208
3.65 -0.42238709453202 -14.8240289668909 -30.5455641654293 -100.139408489422 -30.5455641654293 -100.139408489422 -0.41585330355606 -14.6511027109864
3.7 -0.38273594629592 -21.9338489752987 -33.4538055938475 -108.545298644044 -33.4538055938475 -108.545298644044 -0.376675254754576 -21.7599166495633
3.75 -0.350789837663276 -28.3965245563011 -35.9403698532528 -116.162685131909 -35.9403698532528 -116.162685131909 -0.34567297236048 -28.2192559274289
3.8 -0.32562835393173 -34.3687887910976 -37.6233620999912 -123.10264351289 -37.6233620999912 -123.10264351289 -0.319427830073439 -34.1892912198526
3.85 -0.305381742037544 -39.9054669348071 -38.8628065741027 -130.042682641481 -38.8628065741027 -130.042682641481 -0.299596670722235 -39.7289915594693
3.9 -0.287886423932645 -45.098722400919 -39.5472264653183 -136.028547862927 -39.5472264653183 -136.028547862927 -0.282435409723663 -44.923818277859
3.95 -0.272866138907601 -50.0035626080667 -39.7903978338483 -141.304976090624 -39.7903978338483 -141.304976090624 -0.267693069073529 -49.8304877993798
4 -0.259871840864308 -54.6639604412827 -39.7264159497428 -146.029619513467 -39.7264159497428 -146.029619513467 -0.254942411972879 -54.4931993015219
4.05 -0.248545471428217 -59.1155533114944 -39.4717135089372 -150.354048619227 -39.4717135089372 -150.354048619227 -0.243834331202845 -58.9476403201608
4.1 -0.23860870871436 -63.3876186499687 -39.1123098382278 -154.399388006079 -39.1123098382278 -154.399388006079 -0.23409521014213 -63.2230989216513
4.15 -0.229842774233333 -67.5045378923182 -38.7052451625598 -158.25024581291 -38.7052451625598 -158.25024581291 -0.225509306668024 -67.3439571299578
4.2 -0.222073120750212 -71.4868750860951 -38.285410521885 -161.961737688583 -38.285410521885 -161.961737688583 -0.217904303695611 -71.3307780773985
4.25 -0.215158529839967 -75.3521827916677 -37.8725704261295 -165.569015690787 -37.8725704261295 -165.569015690787 -0.211140786269027 -75.2011162030186
4.3 -0.208983305521526 -79.115615613929 -37.4767849169634 -169.094870989105 -37.4767849169634 -169.094870989105 -0.205104624372716 -78.9701350731337
4.35 -0.203451587445754 -82.7904070514397 -37.1021015220366 -172.554781003594 -37.1021015220366 -172.554781003594 -0.199701379498871 -82.6510837659089
4.4 -0.198483139365331 -86.388248770682 -36.7489013786305 -175.960000949162 -36.7489013786305 -175.960000949162 -0.194852192901209 -86.2556803592272
4.45 -0.194010199186467 -89.9196012117574 -36.4153179579756 -179.319402633813 -36.4153179579756 -179.319402633813 -0.190490732761046 -89.7944271627289
4.5 -0.189975137431478 -93.3939577512305 -36.0980455326213 177.35941662031 -36.0980455326213 177.35941662031 -0.186560961006208 -93.2768772321948
